  can1  7F6   [1]  00
  can1  7F6   [1]  00
  can1  7F7   [0] 
  can1  7F7   [8]  00 0F 42 40 00 0F 42 40
  can1  7F8   [0] 
  can1  7F8   [2]  02 03
  can1  7F9   [1]  00
  can1  7F9   [2]  02 01
  can1  7F9   [1]  02
  can1  7F9   [2]  00 B1
  can1  7F9   [1]  03
  can1  7F9   [2]  01 18
  can1  7F9   [1]  04
  can1  7F9   [2]  00 1F
  can1  7F9   [1]  05
  can1  7F9   [2]  80 09
  can1  7F2   [1]  00
  can1  7F2   [8]  41 A7 5F A6 40 04 D4 56
  can1  7F3   [8]  C2 F7 7D BA 44 E4 EE B0
  can1  7F4   [8]  42 C3 5E FE C4 F6 64 66
  can1  7F2   [1]  01
  can1  7F2   [8]  42 4C FF 3C C5 0C 98 7D
  can1  7F3   [8]  C1 49 E9 31 44 84 19 B3
  can1  7F4   [8]  C2 C0 63 DC 44 8D 4C F2
  can1  7F2   [1]  02
  can1  7F2   [8]  45 44 34 4C C0 91 79 6F
  can1  7F3   [8]  45 45 A4 DD 42 C0 63 CC
  can1  7F4   [8]  45 47 71 2D C2 A8 53 B5
  can1  7F2   [1]  03
  can1  7F2   [8]  3F 54 C4 EF C1 40 85 C2
  can1  7F3   [8]  42 38 07 FD 40 E6 98 BD
  can1  7F4   [8]  C2 3A 43 29 40 DF DA A3
  can1  7F2   [1]  04
  can1  7F2   [8]  C2 4E 15 E1 BD F6 E1 FC
  can1  7F3   [8]  41 DB 1D 60 C1 10 10 4C
  can1  7F4   [8]  41 CA B4 D1 41 20 56 D4
  can1  7F2   [1]  05
  can1  7F2   [8]  3F 40 25 6A C1 DA D5 F4
  can1  7F3   [8]  3F F8 5F 58 C1 CC ED 0E
  can1  7F4   [8]  3F 9F F9 FC C1 DD 29 AD
  can1  702   [1]  00
  can1  000   [2]  82 00
  can1  7F0   [0] 
  can1  7F0   [8]  40 00 00 12 FE 3A E6 A8
  can1  701   [1]  00
  can1  7F0   [0] 
  can1  7F1   [6]  04 FA FA 93 01 43
  can1  7F0   [8]  40 00 00 43 FE 77 E6 EE
  can1  7F1   [6]  05 69 FA E0 01 83
  can1  000   [2]  81 00
  can1  000   [2]  82 00
  can1  000   [2]  02 00
  can1  000   [2]  80 00
  can1  080   [0] 
  can1  201   [8]  00 00 00 00 00 00 00 00
  can1  401   [6]  00 00 00 00 00 00
  can1  501   [6]  00 00 00 00 00 00
  can1  080   [0] 
  can1  201   [8]  00 00 00 00 00 00 00 00
  can1  7F0   [0] 
  can1  7F0   [8]  40 00 00 3C FE 43 E6 AF
  can1  7F1   [6]  05 29 FA D6 01 25
  can1  401   [6]  00 00 00 00 00 00
  can1  501   [6]  00 00 00 00 00 00
  can1  080   [0] 
  can1  201   [8]  00 00 00 00 00 00 00 00
  can1  401   [6]  00 00 00 00 00 00
  can1  501   [6]  00 00 00 00 00 00
  can1  080   [0] 
  can1  201   [8]  00 00 00 00 00 00 00 00
  can1  401   [6]  00 00 00 00 00 00
  can1  501   [6]  00 00 00 00 00 00
  can1  080   [0] 
  can1  7F0   [0] 
  can1  7F0   [8]  40 00 00 06 FD D2 E6 70
  can1  7F1   [6]  04 BC FB 11 00 CB
  can1  201   [8]  00 00 00 00 00 00 00 00
  can1  401   [6]  00 00 00 00 00 00
  can1  501   [6]  00 00 00 00 00 00
  can1  080   [0] 
  can1  201   [8]  00 00 00 00 00 00 00 00
  can1  401   [6]  00 00 00 00 00 00
  can1  501   [6]  00 00 00 00 00 00
  can1  080   [0] 
  can1  201   [8]  00 00 00 00 00 00 00 00
  can1  401   [6]  00 00 00 00 00 00
  can1  501   [6]  00 00 00 00 00 00
  can1  7F0   [0] 
  can1  7F0   [8]  40 00 FF C6 FD 5F E6 07
  can1  7F1   [6]  04 BD FA CB 00 87
  can1  080   [0] 
  can1  201   [8]  00 00 00 00 00 00 00 00
  can1  401   [6]  00 00 00 00 00 00
  can1  501   [6]  00 00 00 00 00 00
  can1  080   [0] 
  can1  201   [8]  00 00 00 00 00 00 0F 00
  can1  401   [6]  0F 00 00 00 00 00
  can1  501   [6]  0F 00 A4 01 00 00
  can1  601   [8]  40 00 10 00 00 00 00 00
  can1  080   [0] 
  can1  201   [8]  00 00 00 00 00 00 0F 00
  can1  401   [6]  0F 00 00 00 00 00
  can1  7F0   [0] 
  can1  7F0   [8]  40 00 FF B5 FD 47 E5 F3
  can1  7F1   [6]  05 02 FA B8 00 BF
  can1  501   [6]  0F 00 A4 01 00 00
  can1  080   [0] 
  can1  201   [8]  00 00 00 00 00 00 0F 00
  can1  401   [6]  0F 00 00 00 00 00
  can1  501   [6]  0F 00 E8 FF FF FF
  can1  080   [0] 
  can1  201   [8]  00 00 00 00 00 00 0F 00
  can1  401   [6]  0F 00 00 00 00 00
  can1  501   [6]  0F 00 F3 FF FF FF
  can1  080   [0] 
  can1  201   [8]  00 00 00 00 00 00 0F 00
  can1  401   [6]  0F 00 00 00 00 00
  can1  501   [6]  0F 00 F3 FF FF FF
  can1  080   [0] 
  can1  7F0   [0] 
  can1  7F0   [8]  40 00 FF 12 FC AB E5 6C
  can1  7F1   [6]  04 58 FA 06 00 31
  can1  201   [8]  00 00 00 00 00 00 0F 00
  can1  401   [6]  0F 00 00 00 00 00
  can1  501   [6]  0F 00 EB FF FF FF
  can1  080   [0] 
  can1  201   [8]  00 00 00 00 00 00 0F 00
  can1  401   [6]  0F 00 00 00 00 00
  can1  501   [6]  0F 00 DD FF FF FF
  can1  080   [0] 
  can1  201   [8]  00 00 00 00 00 00 0F 00
  can1  401   [6]  0F 00 00 00 00 00
  can1  501   [6]  0F 00 DD FF FF FF
  can1  7F0   [0] 
  can1  7F0   [8]  40 00 FF 9D FD 45 E6 20
  can1  7F1   [6]  04 B7 FA 7F 00 D4
  can1  080   [0] 
  can1  201   [8]  00 00 00 00 00 00 0F 00
  can1  401   [6]  0F 00 00 00 00 00
  can1  501   [6]  0F 00 CB FF FF FF
  can1  080   [0] 
  can1  201   [8]  00 00 00 00 00 00 0F 00
  can1  401   [6]  0F 00 00 00 00 00
  can1  501   [6]  0F 00 C7 FF FF FF
  can1  080   [0] 
  can1  201   [8]  00 00 00 00 00 00 0F 00
  can1  7F0   [0] 
  can1  7F0   [8]  40 00 00 9E FE 19 E7 20
  can1  7F1   [6]  05 53 FB 77 01 E7
  can1  401   [6]  0F 00 00 00 00 00
  can1  501   [6]  0F 00 AA FF FF FF
  can1  601   [8]  80 00 10 00 00 00 04 05
  can1  601   [8]  40 00 10 00 00 00 00 00
  can1  080   [0] 
  can1  201   [8]  00 00 00 00 00 00 0F 00
  can1  401   [6]  0F 00 00 00 00 00
  can1  501   [6]  0F 00 AA FF FF FF
  can1  7F0   [0] 
  can1  7F0   [8]  40 00 00 D3 FE 51 E7 85
  can1  7F1   [6]  05 9C FB E3 02 68
  can1  080   [0] 
  can1  201   [8]  00 00 00 00 00 00 0F 00
  can1  401   [6]  0F 00 00 00 00 00
  can1  501   [6]  0F 00 C8 FF FF FF
  can1  080   [0] 
  can1  7F0   [0] 
  can1  7F0   [8]  40 00 FF F6 FD 67 E6 9A
  can1  7F1   [6]  04 D6 FB 17 01 96
  can1  201   [8]  00 00 00 00 00 00 0F 00
  can1  401   [6]  0F 00 00 00 00 00
  can1  501   [6]  0F 00 F6 FF FF FF
  can1  701   [1]  00
  can1  080   [0] 
  can1  201   [8]  00 00 00 00 00 00 0F 00
  can1  401   [6]  0F 00 00 00 00 00
  can1  501   [6]  0F 00 F6 FF FF FF
  can1  7F0   [0] 
  can1  7F0   [8]  40 00 FF EE FD 4C E6 8E
  can1  7F1   [6]  04 DB FB 11 01 6E
  can1  080   [0] 
  can1  201   [8]  00 00 00 00 00 00 0F 00
  can1  401   [6]  0F 00 00 00 00 00
  can1  501   [6]  0F 00 02 00 00 00
  can1  7F0   [0] 
  can1  7F0   [8]  40 00 FF 95 FC EE E6 2C
  can1  7F1   [6]  04 81 FA B5 01 19
  can1  080   [0] 
  can1  201   [8]  00 00 00 00 00 00 0F 00
  can1  401   [6]  0F 00 00 00 00 00
  can1  501   [6]  0F 00 D8 FF FF FF
  can1  080   [0] 
  can1  201   [8]  00 00 00 00 00 00 0F 00
  can1  401   [6]  0F 00 00 00 00 00
  can1  501   [6]  0F 00 D8 FF FF FF
  can1  7F0   [0] 
  can1  7F0   [8]  40 00 FE D7 FC 30 E5 5D
  can1  7F1   [6]  03 C0 F9 D8 00 37
  can1  080   [0] 
  can1  201   [8]  00 00 00 00 00 00 0F 00
  can1  401   [6]  0F 00 00 00 00 00
  can1  501   [6]  0F 00 D5 FF FF FF
  can1  7F0   [0] 
  can1  7F0   [8]  40 00 FF 76 FC DA E5 FE
  can1  7F1   [6]  04 57 FA 5B 00 B7
  can1  080   [0] 
  can1  201   [8]  00 00 00 00 00 00 0F 00
  can1  401   [6]  0F 00 00 00 00 00
  can1  501   [6]  0F 00 C3 FF FF FF
  can1  080   [0] 
  can1  201   [8]  00 00 00 00 00 00 0F 00
  can1  7F0   [0] 
  can1  7F0   [8]  40 00 00 47 FD 9B E6 C1
  can1  7F1   [6]  05 2D FB 2B 01 7D
  can1  401   [6]  0F 00 00 00 00 00
  can1  501   [6]  0F 00 C3 FF FF FF
  can1  601   [8]  80 00 10 00 00 00 04 05
  can1  601   [8]  40 00 10 00 00 00 00 00
  can1  581   [8]  43 00 10 00 92 01 02 00
  can1  080   [0] 
  can1  201   [8]  00 00 00 00 00 00 0F 00
  can1  401   [6]  0F 00 00 00 00 00
  can1  501   [6]  0F 00 9E FF FF FF
  can1  601   [8]  40 18 10 01 00 00 00 00
  can1  581   [8]  43 18 10 01 FB 00 00 00
  can1  7F0   [0] 
  can1  7F0   [8]  40 00 00 AB FE 26 E7 39
  can1  7F1   [6]  05 A6 FB 84 01 E1
  can1  080   [0] 
  can1  201   [8]  00 00 00 00 00 00 0F 00
  can1  401   [6]  0F 00 00 00 00 00
  can1  501   [6]  0F 00 BD FF FF FF
  can1  601   [8]  40 18 10 02 00 00 00 00
  can1  581   [8]  43 18 10 02 00 00 11 62
  can1  601   [8]  40 18 10 03 00 00 00 00
  can1  581   [8]  43 18 10 03 00 00 32 20
  can1  080   [0] 
  can1  201   [8]  00 00 00 00 00 00 0F 00
  can1  401   [6]  0F 00 00 00 00 00
  can1  7F0   [0] 
  can1  7F0   [8]  40 00 00 70 FE 06 E6 FD
  can1  7F1   [6]  05 5C FB 37 01 BA
  can1  501   [6]  0F 00 BD FF FF FF
  can1  601   [8]  40 18 10 04 00 00 00 00
  can1  581   [8]  43 18 10 04 03 70 00 09
  can1  080   [0] 
  can1  201   [8]  00 00 00 00 00 00 0F 00
  can1  401   [6]  0F 00 00 00 00 00
  can1  501   [6]  0F 00 E3 FF FF FF
  can1  601   [8]  2B 02 18 03 0A 00 00 00
  can1  581   [8]  60 02 18 03 00 00 00 00
  can1  7F0   [0] 
  can1  7F0   [8]  40 00 00 BB FE 71 E7 57
  can1  7F1   [6]  05 C8 FB 8E 02 26
  can1  080   [0] 
  can1  201   [8]  00 00 00 00 00 00 0F 00
  can1  401   [6]  0F 00 00 00 00 00
  can1  501   [6]  0F 00 F9 FF FF FF
  can1  601   [8]  2B 03 18 03 0A 00 00 00
  can1  581   [8]  60 03 18 03 00 00 00 00
  can1  080   [0] 
  can1  201   [8]  00 00 00 00 00 00 0F 00
  can1  401   [6]  0F 00 00 00 00 00
  can1  501   [6]  0F 00 F9 FF FF FF
  can1  7F0   [0] 
  can1  7F0   [8]  40 00 00 A5 FE 6C E7 36
  can1  7F1   [6]  05 AB FB 63 01 F9
  can1  000   [2]  02 01
  can1  000   [2]  80 01
  can1  601   [8]  2F 60 60 00 03 00 00 00
  can1  581   [8]  60 60 60 00 00 00 00 00
  can1  080   [0] 
  can1  201   [8]  00 00 00 00 00 00 0F 00
  can1  401   [6]  0F 00 00 00 00 00
  can1  501   [6]  0F 00 F0 FF FF FF
  can1  601   [8]  23 7F 60 00 A8 61 00 00
  can1  581   [8]  60 7F 60 00 00 00 00 00
  can1  080   [0] 
  can1  201   [8]  00 00 00 00 00 00 0F 00
  can1  7F0   [0] 
  can1  7F0   [8]  40 00 00 BF FE 85 E7 30
  can1  7F1   [6]  05 BB FB 4D 01 F9
  can1  401   [6]  0F 00 00 00 00 00
  can1  501   [6]  0F 00 F0 FF FF FF
  can1  601   [8]  23 83 60 00 10 27 00 00
  can1  581   [8]  60 83 60 00 00 00 00 00
  can1  080   [0] 
  can1  201   [8]  00 00 00 00 00 00 0F 00
  can1  401   [6]  0F 00 00 00 00 00
  can1  501   [6]  0F 00 00 00 00 00
  can1  601   [8]  23 84 60 00 10 27 00 00
  can1  581   [8]  60 84 60 00 00 00 00 00
  can1  7F0   [0] 
  can1  7F0   [8]  40 00 00 49 FE 22 E6 B7
  can1  7F1   [6]  05 44 FA C3 01 8A
  can1  601   [8]  23 85 60 00 10 27 00 00
  can1  581   [8]  60 85 60 00 00 00 00 00
  can1  080   [0] 
  can1  201   [8]  00 00 00 00 00 00 0F 00
  can1  401   [6]  0F 00 00 00 00 00
  can1  501   [6]  0F 00 FD FF FF FF
  can1  601   [8]  2B 86 60 00 00 00 00 00
  can1  581   [8]  60 86 60 00 00 00 00 00
  can1  601   [8]  2B 40 60 00 06 00 00 00
  can1  581   [8]  60 40 60 00 00 00 00 00
  can1  080   [0] 
  can1  201   [8]  00 00 00 00 00 00 0F 00
  can1  7F0   [0] 
  can1  7F0   [8]  40 00 00 0E FD F5 E6 6E
  can1  7F1   [6]  05 11 FA 7B 01 52
  can1  401   [6]  0F 00 00 00 00 00
  can1  501   [6]  0F 00 FD FF FF FF
  can1  601   [8]  2B 40 60 00 0F 00 00 00
  can1  581   [8]  60 40 60 00 00 00 00 00
  can1  080   [0] 
  can1  201   [8]  00 00 00 00 00 00 0F 00
  can1  401   [6]  0F 00 00 00 00 00
  can1  501   [6]  0F 00 00 00 00 00
  can1  000   [2]  01 01
  can1  381   [6]  37 17 00 00 00 00
  can1  481   [6]  37 17 00 00 00 00
  can1  601   [8]  23 FF 60 00 00 00 00 00
  can1  7F0   [0] 
  can1  581   [8]  60 FF 60 00 00 00 00 00
  can1  7F0   [8]  40 00 00 04 FD F2 E6 75
  can1  7F1   [6]  05 2B FA 66 01 47
  can1  080   [0] 
  can1  181   [8]  00 00 00 00 F9 FF 37 17
  can1  201   [8]  00 00 00 00 00 00 0F 00
  can1  381   [6]  37 13 00 00 00 00
  can1  481   [6]  37 13 00 00 00 00
  can1  381   [6]  37 17 00 00 00 00
  can1  401   [6]  0F 00 00 00 00 00
  can1  481   [6]  37 17 00 00 00 00
  can1  501   [6]  0F 00 EA FF FF FF
  can1  601   [8]  2B 40 60 00 0F 00 00 00
  can1  381   [6]  37 13 00 00 00 00
  can1  481   [6]  37 13 00 00 00 00
  can1  381   [6]  37 03 00 00 00 00
  can1  581   [8]  60 40 60 00 00 00 00 00
  can1  080   [0] 
  can1  481   [6]  37 03 00 00 00 00
  can1  181   [8]  00 00 00 00 F9 FF 37 03
  can1  381   [6]  37 07 00 00 00 00
  can1  481   [6]  37 07 00 00 00 00
  can1  381   [6]  37 07 FF FF FF FF
  can1  7F0   [0] 
  can1  7F0   [8]  40 00 00 09 FD E3 E6 65
  can1  381   [6]  37 07 FE FF FF FF
  can1  481   [6]  37 07 E2 FF FF FF
  can1  381   [6]  37 07 FD FF FF FF
  can1  7F1   [6]  05 29 FA 67 01 35
  can1  381   [6]  37 07 FC FF FF FF
  can1  481   [6]  37 07 C4 FF FF FF
  can1  381   [6]  37 07 FB FF FF FF
  can1  481   [6]  37 07 00 00 00 00
  can1  381   [6]  37 07 FA FF FF FF
  can1  481   [6]  37 07 E2 FF FF FF
  can1  381   [6]  37 07 F9 FF FF FF
  can1  381   [6]  37 07 F8 FF FF FF
  can1  201   [8]  00 00 00 00 00 00 0F 00
  can1  481   [6]  37 07 00 00 00 00
  can1  381   [6]  37 07 F7 FF FF FF
  can1  481   [6]  37 03 E2 FF FF FF
  can1  381   [6]  37 03 F7 FF FF FF
  can1  401   [6]  0F 00 00 00 00 00
  can1  481   [6]  37 07 E2 FF FF FF
  can1  381   [6]  37 07 F6 FF FF FF
  can1  481   [6]  37 03 00 00 00 00
  can1  381   [6]  37 03 F5 FF FF FF
  can1  501   [6]  0F 00 EA FF FF FF
  can1  481   [6]  37 07 E2 FF FF FF
  can1  381   [6]  37 07 F5 FF FF FF
  can1  000   [2]  01 01
  can1  481   [6]  37 03 E2 FF FF FF
  can1  080   [0] 
  can1  381   [6]  37 03 F4 FF FF FF
  can1  201   [8]  00 00 00 00 00 00 0F 00
  can1  381   [6]  37 03 F4 FF FF FF
  can1  401   [6]  0F 00 00 00 00 00
  can1  481   [6]  37 03 E2 FF FF FF
  can1  181   [8]  F4 FF FF FF C8 FF 37 07
  can1  381   [6]  37 07 F3 FF FF FF
  can1  481   [6]  37 07 00 00 00 00
  can1  481   [6]  37 07 E2 FF FF FF
  can1  381   [6]  37 03 F2 FF FF FF
  can1  481   [6]  37 03 E2 FF FF FF
  can1  381   [6]  37 03 F1 FF FF FF
  can1  481   [6]  37 03 00 00 00 00
  can1  381   [6]  37 07 F1 FF FF FF
  can1  481   [6]  37 07 E2 FF FF FF
  can1  381   [6]  37 07 F0 FF FF FF
  can1  481   [6]  37 07 00 00 00 00
  can1  381   [6]  37 07 EF FF FF FF
  can1  481   [6]  37 07 E2 FF FF FF
  can1  381   [6]  37 07 EE FF FF FF
  can1  501   [6]  0F 00 DF FF FF FF
  can1  7F0   [0] 
  can1  481   [6]  37 07 00 00 00 00
  can1  381   [6]  37 07 ED FF FF FF
  can1  7F0   [8]  40 00 FF C1 FD 8D E6 26
  can1  080   [0] 
  can1  381   [6]  37 03 ED FF FF FF
  can1  481   [6]  37 03 E2 FF FF FF
  can1  181   [8]  ED FF FF FF 14 00 37 03
  can1  201   [8]  00 00 00 00 00 00 0F 00
  can1  481   [6]  37 07 00 00 00 00
  can1  381   [6]  37 03 EC FF FF FF
  can1  381   [6]  37 07 EC FF FF FF
  can1  401   [6]  0F 00 00 00 00 00
  can1  481   [6]  37 03 E2 FF FF FF
  can1  381   [6]  37 03 EB FF FF FF
  can1  481   [6]  37 07 E2 FF FF FF
  can1  381   [6]  37 07 EA FF FF FF
  can1  481   [6]  37 03 00 00 00 00
  can1  381   [6]  37 03 E9 FF FF FF
  can1  481   [6]  37 07 E2 FF FF FF
  can1  381   [6]  37 07 E8 FF FF FF
  can1  381   [6]  37 07 E7 FF FF FF
  can1  501   [6]  0F 00 DF FF FF FF
  can1  7F1   [6]  04 EA FA 10 00 B4
  can1  381   [6]  37 07 E6 FF FF FF
  can1  080   [0] 
  can1  481   [6]  37 03 E2 FF FF FF
  can1  181   [8]  E5 FF FF FF B5 FF 37 03
  can1  201   [8]  00 00 00 00 00 00 0F 00
  can1  481   [6]  37 07 E2 FF FF FF
  can1  381   [6]  37 03 E5 FF FF FF
  can1  381   [6]  37 07 E4 FF FF FF
  can1  481   [6]  37 03 E2 FF FF FF
  can1  381   [6]  37 03 E3 FF FF FF
  can1  481   [6]  37 07 E2 FF FF FF
  can1  381   [6]  37 07 E2 FF FF FF
  can1  381   [6]  37 07 E1 FF FF FF
  can1  7F0   [0] 
  can1  401   [6]  0F 00 00 00 00 00
  can1  381   [6]  37 07 E0 FF FF FF
  can1  7F0   [8]  40 00 00 32 FE 0D E6 B4
  can1  481   [6]  37 03 C4 FF FF FF
  can1  381   [6]  37 03 DF FF FF FF
  can1  481   [6]  37 07 E2 FF FF FF
  can1  381   [6]  37 07 DE FF FF FF
  can1  7F1   [6]  05 82 FA BA 01 41
  can1  381   [6]  37 07 DC FF FF FF
  can1  501   [6]  0F 00 DF FF FF FF
  can1  381   [6]  37 07 DB FF FF FF
  can1  481   [6]  37 03 E2 FF FF FF
  can1  381   [6]  37 03 DA FF FF FF
  can1  481   [6]  37 07 E2 FF FF FF
  can1  381   [6]  37 07 D9 FF FF FF
  can1  080   [0] 
  can1  181   [8]  D8 FF FF FF BF FF 37 07
  can1  201   [8]  00 00 00 00 00 00 0F 00
  can1  381   [6]  37 07 D8 FF FF FF
  can1  381   [6]  37 07 D7 FF FF FF
  can1  401   [6]  0F 00 00 00 00 00
  can1  481   [6]  37 03 C4 FF FF FF
  can1  381   [6]  37 03 D6 FF FF FF
  can1  481   [6]  37 03 E2 FF FF FF
  can1  381   [6]  37 03 D4 FF FF FF
  can1  481   [6]  37 07 E2 FF FF FF
  can1  381   [6]  37 07 D3 FF FF FF
  can1  501   [6]  0F 00 DD FF FF FF
  can1  381   [6]  37 07 D2 FF FF FF
  can1  080   [0] 
  can1  181   [8]  D2 FF FF FF B5 FF 37 03
  can1  201   [8]  00 00 00 00 00 00 0F 00
  can1  481   [6]  37 03 E2 FF FF FF
  can1  381   [6]  37 03 D1 FF FF FF
  can1  401   [6]  0F 00 00 00 00 00
  can1  481   [6]  37 07 E2 FF FF FF
  can1  381   [6]  37 07 D0 FF FF FF
  can1  481   [6]  37 03 E2 FF FF FF
  can1  381   [6]  37 03 CF FF FF FF
  can1  381   [6]  37 03 CE FF FF FF
  can1  481   [6]  37 07 E2 FF FF FF
  can1  381   [6]  37 07 CD FF FF FF
  can1  7F0   [0] 
  can1  381   [6]  37 07 CC FF FF FF
  can1  501   [6]  0F 00 DD FF FF FF
  can1  7F0   [8]  40 00 FF AA FD 86 E6 23
  can1  381   [6]  37 07 CB FF FF FF
  can1  481   [6]  37 03 C4 FF FF FF
  can1  381   [6]  37 03 CA FF FF FF
  can1  7F1   [6]  04 E3 FA 39 00 A7
  can1  481   [6]  37 07 E2 FF FF FF
  can1  381   [6]  37 07 C9 FF FF FF
  can1  381   [6]  37 07 C8 FF FF FF
  can1  381   [6]  37 07 C7 FF FF FF
  can1  080   [0] 
  can1  181   [8]  C6 FF FF FF AE FF 37 07
  can1  201   [8]  00 00 00 00 00 00 0F 00
  can1  381   [6]  37 07 C6 FF FF FF
  can1  381   [6]  37 07 C4 FF FF FF
  can1  401   [6]  0F 00 00 00 00 00
  can1  481   [6]  37 03 E2 FF FF FF
  can1  381   [6]  37 03 C3 FF FF FF
  can1  381   [6]  37 03 C2 FF FF FF
  can1  501   [6]  0F 00 CF FF FF FF
  can1  481   [6]  37 07 E2 FF FF FF
  can1  080   [0] 
  can1  381   [6]  37 07 C1 FF FF FF
  can1  181   [8]  C0 FF FF FF E1 FF 37 03
  can1  201   [8]  00 00 00 00 00 00 0F 00
  can1  481   [6]  37 03 C4 FF FF FF
  can1  381   [6]  37 03 C0 FF FF FF
  can1  401   [6]  0F 00 00 00 00 00
  can1  481   [6]  37 03 E2 FF FF FF
  can1  381   [6]  37 03 BE FF FF FF
  can1  381   [6]  37 03 BD FF FF FF
  can1  381   [6]  37 03 BC FF FF FF
  can1  481   [6]  37 07 C4 FF FF FF
  can1  381   [6]  37 07 BA FF FF FF
  can1  481   [6]  37 07 E2 FF FF FF
  can1  381   [6]  37 07 B9 FF FF FF
  can1  501   [6]  0F 00 CF FF FF FF
  can1  481   [6]  37 07 C4 FF FF FF
  can1  381   [6]  37 07 B7 FF FF FF
  can1  481   [6]  37 03 E2 FF FF FF
  can1  381   [6]  37 03 B6 FF FF FF
  can1  7F0   [0] 
  can1  481   [6]  37 07 C4 FF FF FF
  can1  381   [6]  37 07 B4 FF FF FF
  can1  7F0   [8]  40 00 FF 14 FC F0 E5 99
  can1  381   [6]  37 07 B2 FF FF FF
  can1  7F1   [6]  04 74 F9 E0 00 25
  can1  481   [6]  37 07 E2 FF FF FF
  can1  381   [6]  37 07 B0 FF FF FF
  can1  481   [6]  37 07 C4 FF FF FF
  can1  381   [6]  37 07 AE FF FF FF
  can1  381   [6]  37 07 AC FF FF FF
  can1  080   [0] 
  can1  181   [8]  AB FF FF FF C4 FF 37 07
  can1  381   [6]  37 07 AA FF FF FF
  can1  381   [6]  37 07 A8 FF FF FF
  can1  201   [8]  00 00 00 00 00 00 0F 00
  can1  381   [6]  37 07 A7 FF FF FF
  can1  401   [6]  0F 00 00 00 00 00
  can1  481   [6]  37 03 C4 FF FF FF
  can1  381   [6]  37 03 A5 FF FF FF
  can1  501   [6]  0F 00 E8 FF FF FF
  can1  381   [6]  37 03 A3 FF FF FF
  can1  080   [0] 
  can1  481   [6]  37 07 E2 FF FF FF
  can1  201   [8]  00 00 00 00 00 00 0F 00
  can1  381   [6]  37 07 A2 FF FF FF
  can1  181   [8]  A1 FF FF FF 93 FF 37 07
  can1  401   [6]  0F 00 00 00 00 00
  can1  481   [6]  37 03 C4 FF FF FF
  can1  381   [6]  37 03 A0 FF FF FF
  can1  381   [6]  37 03 9E FF FF FF
  can1  481   [6]  37 03 E2 FF FF FF
  can1  381   [6]  37 03 9D FF FF FF
  can1  481   [6]  37 03 C4 FF FF FF
  can1  381   [6]  37 03 9B FF FF FF
  can1  481   [6]  37 07 C4 FF FF FF
  can1  381   [6]  37 07 9A FF FF FF
  can1  481   [6]  37 07 E2 FF FF FF
  can1  381   [6]  37 07 98 FF FF FF
  can1  501   [6]  0F 00 E8 FF FF FF
  can1  381   [6]  37 07 97 FF FF FF
  can1  7F0   [0] 
  can1  481   [6]  37 03 E2 FF FF FF
  can1  381   [6]  37 03 96 FF FF FF
  can1  481   [6]  37 07 E2 FF FF FF
  can1  381   [6]  37 07 96 FF FF FF
  can1  7F0   [8]  40 00 FE C6 FC 82 E5 37
  can1  381   [6]  37 07 95 FF FF FF
  can1  7F1   [6]  04 1D F9 9C FF DD
  can1  481   [6]  37 07 00 00 00 00
  can1  381   [6]  37 07 94 FF FF FF
  can1  481   [6]  37 07 E2 FF FF FF
  can1  381   [6]  37 07 93 FF FF FF
  can1  481   [6]  37 07 00 00 00 00
  can1  080   [0] 
  can1  381   [6]  37 07 92 FF FF FF
  can1  181   [8]  92 FF FF FF B0 FF 37 07
  can1  481   [6]  37 07 E2 FF FF FF
  can1  201   [8]  00 00 00 00 00 00 0F 00
  can1  481   [6]  37 07 00 00 00 00
  can1  381   [6]  37 07 91 FF FF FF
  can1  401   [6]  0F 00 00 00 00 00
  can1  481   [6]  37 03 E2 FF FF FF
  can1  381   [6]  37 03 91 FF FF FF
  can1  381   [6]  37 03 90 FF FF FF
  can1  501   [6]  0F 00 CD FF FF FF
  can1  481   [6]  37 07 00 00 00 00
  can1  080   [0] 
  can1  381   [6]  37 07 90 FF FF FF
  can1  181   [8]  8F FF FF FF AB FF 37 03
  can1  201   [8]  00 00 00 00 00 00 0F 00
  can1  381   [6]  37 03 8F FF FF FF
  can1  401   [6]  0F 00 00 00 00 00
  can1  481   [6]  37 03 00 00 00 00
  can1  481   [6]  37 03 E2 FF FF FF
  can1  381   [6]  37 03 8E FF FF FF
  can1  381   [6]  37 03 8D FF FF FF
  can1  481   [6]  37 03 00 00 00 00
  can1  381   [6]  37 07 8C FF FF FF
  can1  481   [6]  37 07 E2 FF FF FF
  can1  501   [6]  0F 00 CD FF FF FF
  can1  381   [6]  37 07 8B FF FF FF
  can1  7F0   [0] 
  can1  381   [6]  37 03 8A FF FF FF
  can1  481   [6]  37 03 C4 FF FF FF
  can1  7F0   [8]  40 00 FF CD FD 6B E6 44
  can1  381   [6]  37 07 89 FF FF FF
  can1  080   [0] 
  can1  481   [6]  37 07 E2 FF FF FF
  can1  381   [6]  37 07 87 FF FF FF
  can1  481   [6]  37 07 C4 FF FF FF
  can1  181   [8]  87 FF FF FF BC FF 37 07
  can1  381   [6]  37 07 85 FF FF FF
  can1  481   [6]  37 07 E2 FF FF FF
  can1  381   [6]  37 07 84 FF FF FF
  can1  481   [6]  37 07 C4 FF FF FF
  can1  381   [6]  37 07 82 FF FF FF
  can1  7F1   [6]  05 1B FA A1 00 C7
  can1  381   [6]  37 07 80 FF FF FF
  can1  481   [6]  37 07 E2 FF FF FF
  can1  201   [8]  00 00 00 00 00 00 0F 00
  can1  381   [6]  37 07 7E FF FF FF
  can1  401   [6]  0F 00 00 00 00 00
  can1  481   [6]  37 07 C4 FF FF FF
  can1  381   [6]  37 07 7C FF FF FF
  can1  381   [6]  37 03 7A FF FF FF
  can1  481   [6]  37 03 C4 FF FF FF
  can1  381   [6]  37 03 79 FF FF FF
  can1  501   [6]  0F 00 B2 FF FF FF
  can1  481   [6]  37 07 C4 FF FF FF
  can1  080   [0] 
  can1  381   [6]  37 07 77 FF FF FF
  can1  181   [8]  75 FF FF FF B3 FF 37 07
  can1  201   [8]  00 00 00 00 00 00 0F 00
  can1  381   [6]  37 03 75 FF FF FF
  can1  401   [6]  0F 00 00 00 00 00
  can1  481   [6]  37 03 E2 FF FF FF
  can1  381   [6]  37 03 73 FF FF FF
  can1  481   [6]  37 03 A6 FF FF FF
  can1  381   [6]  37 03 70 FF FF FF
  can1  481   [6]  37 03 C4 FF FF FF
  can1  381   [6]  37 03 6E FF FF FF
  can1  481   [6]  37 07 C4 FF FF FF
  can1  381   [6]  37 07 6D FF FF FF
  can1  381   [6]  37 07 6A FF FF FF
  can1  501   [6]  0F 00 B2 FF FF FF
  can1  7F0   [0] 
  can1  381   [6]  37 07 68 FF FF FF
  can1  7F0   [8]  40 00 FF AA FD 22 E6 15
  can1  381   [6]  37 03 65 FF FF FF
  can1  481   [6]  37 03 A6 FF FF FF
  can1  7F1   [6]  04 F7 FA 73 00 9D
  can1  481   [6]  37 07 C4 FF FF FF
  can1  381   [6]  37 07 62 FF FF FF
  can1  481   [6]  37 07 A6 FF FF FF
  can1  381   [6]  37 07 5F FF FF FF
  can1  481   [6]  37 07 88 FF FF FF
  can1  080   [0] 
  can1  381   [6]  37 07 5C FF FF FF
  can1  181   [8]  5A FF FF FF D0 FF 37 07
  can1  481   [6]  37 07 A6 FF FF FF
  can1  381   [6]  37 07 59 FF FF FF
  can1  381   [6]  37 07 56 FF FF FF
  can1  381   [6]  37 07 53 FF FF FF
  can1  381   [6]  37 07 50 FF FF FF
  can1  201   [8]  00 00 00 00 00 00 0F 00
  can1  381   [6]  37 07 4D FF FF FF
  can1  401   [6]  0F 00 00 00 00 00
  can1  381   [6]  37 07 4A FF FF FF
  can1  501   [6]  0F 00 9F FF FF FF
  can1  481   [6]  37 03 C4 FF FF FF
  can1  381   [6]  37 03 47 FF FF FF
  can1  381   [6]  37 03 45 FF FF FF
  can1  481   [6]  37 03 A6 FF FF FF
  can1  381   [6]  37 03 42 FF FF FF
  can1  080   [0] 
  can1  181   [8]  40 FF FF FF D0 FF 37 03
  can1  201   [8]  00 00 00 00 00 00 0F 00
  can1  381   [6]  37 03 3F FF FF FF
  can1  401   [6]  0F 00 00 00 00 00
  can1  381   [6]  37 07 3C FF FF FF
  can1  481   [6]  37 07 A6 FF FF FF
  can1  481   [6]  37 03 A6 FF FF FF
  can1  381   [6]  37 03 39 FF FF FF
  can1  381   [6]  37 03 35 FF FF FF
  can1  501   [6]  0F 00 9F FF FF FF
  can1  481   [6]  37 07 88 FF FF FF
  can1  381   [6]  37 07 32 FF FF FF
  can1  7F0   [0] 
  can1  381   [6]  37 03 2F FF FF FF
  can1  481   [6]  37 03 A6 FF FF FF
  can1  7F0   [8]  40 00 FF F4 FD 53 E6 4F
  can1  481   [6]  37 07 C4 FF FF FF
  can1  381   [6]  37 07 2C FF FF FF
  can1  481   [6]  37 07 A6 FF FF FF
  can1  381   [6]  37 07 29 FF FF FF
  can1  7F1   [6]  05 45 FA C2 00 F3
  can1  381   [6]  37 07 26 FF FF FF
  can1  481   [6]  37 07 88 FF FF FF
  can1  381   [6]  37 07 23 FF FF FF
  can1  381   [6]  37 07 1F FF FF FF
  can1  481   [6]  37 07 A6 FF FF FF
  can1  381   [6]  37 07 1C FF FF FF
  can1  381   [6]  37 07 19 FF FF FF
  can1  080   [0] 
  can1  181   [8]  17 FF FF FF D2 FF 37 07
  can1  201   [8]  00 00 00 00 00 00 0F 00
  can1  381   [6]  37 07 16 FF FF FF
  can1  381   [6]  37 07 12 FF FF FF
  can1  401   [6]  0F 00 00 00 00 00
  can1  481   [6]  37 03 88 FF FF FF
  can1  381   [6]  37 03 0E FF FF FF
  can1  501   [6]  0F 00 D0 FF FF FF
  can1  381   [6]  37 03 0A FF FF FF
  can1  381   [6]  37 03 07 FF FF FF
  can1  481   [6]  37 03 A6 FF FF FF
  can1  381   [6]  37 03 03 FF FF FF
  can1  481   [6]  37 03 88 FF FF FF
  can1  381   [6]  37 03 00 FF FF FF
  can1  080   [0] 
  can1  481   [6]  37 03 A6 FF FF FF
  can1  181   [8]  FD FE FF FF 14 00 37 03
  can1  201   [8]  00 00 00 00 00 00 0F 00
  can1  381   [6]  37 03 FC FE FF FF
  can1  381   [6]  37 03 F9 FE FF FF
  can1  381   [6]  37 03 F7 FE FF FF
  can1  401   [6]  0F 00 00 00 00 00
  can1  481   [6]  37 07 A6 FF FF FF
  can1  381   [6]  37 07 F4 FE FF FF
  can1  7F0   [0] 
  can1  381   [6]  37 03 F1 FE FF FF
  can1  481   [6]  37 03 A6 FF FF FF
  can1  501   [6]  0F 00 C6 FF FF FF
  can1  481   [6]  37 07 C4 FF FF FF
  can1  381   [6]  37 07 EF FE FF FF
  can1  381   [6]  37 03 EE FE FF FF
  can1  481   [6]  37 03 C4 FF FF FF
  can1  7F0   [8]  40 00 00 1F FD 99 E6 87
  can1  381   [6]  37 03 EC FE FF FF
  can1  481   [6]  37 03 E2 FF FF FF
  can1  381   [6]  37 07 EB FE FF FF
  can1  481   [6]  37 07 C4 FF FF FF
  can1  7F1   [6]  05 59 FA E1 01 40
  can1  381   [6]  37 07 E9 FE FF FF
  can1  481   [6]  37 07 E2 FF FF FF
  can1  381   [6]  37 07 E8 FE FF FF
  can1  481   [6]  37 07 C4 FF FF FF
  can1  381   [6]  37 07 E6 FE FF FF
  can1  481   [6]  37 07 E2 FF FF FF
  can1  080   [0] 
  can1  381   [6]  37 07 E5 FE FF FF
  can1  181   [8]  E4 FE FF FF C6 FF 37 07
  can1  201   [8]  00 00 00 00 00 00 0F 00
  can1  481   [6]  37 07 C4 FF FF FF
  can1  381   [6]  37 07 E4 FE FF FF
  can1  401   [6]  0F 00 00 00 00 00
  can1  481   [6]  37 07 E2 FF FF FF
  can1  381   [6]  37 07 E2 FE FF FF
  can1  381   [6]  37 03 E1 FE FF FF
  can1  481   [6]  37 03 C4 FF FF FF
  can1  381   [6]  37 03 DF FE FF FF
  can1  481   [6]  37 03 E2 FF FF FF
  can1  481   [6]  37 07 C4 FF FF FF
  can1  381   [6]  37 07 DE FE FF FF
  can1  481   [6]  37 07 E2 FF FF FF
  can1  381   [6]  37 07 DC FE FF FF
  can1  381   [6]  37 07 DB FE FF FF
  can1  501   [6]  0F 00 C6 FF FF FF
  can1  481   [6]  37 07 C4 FF FF FF
  can1  381   [6]  37 07 D9 FE FF FF
  can1  481   [6]  37 03 E2 FF FF FF
  can1  080   [0] 
  can1  381   [6]  37 03 D8 FE FF FF
  can1  181   [8]  D7 FE FF FF 95 FF 37 07
  can1  481   [6]  37 07 C4 FF FF FF
  can1  381   [6]  37 07 D6 FE FF FF
  can1  381   [6]  37 07 D4 FE FF FF
  can1  7F0   [0] 
  can1  7F0   [8]  40 00 00 A7 FE 18 E6 FD
  can1  381   [6]  37 07 D2 FE FF FF
  can1  7F1   [6]  05 A1 FB 3F 01 A9
  can1  381   [6]  37 07 D1 FE FF FF
  can1  481   [6]  37 07 E2 FF FF FF
  can1  381   [6]  37 07 CF FE FF FF
  can1  481   [6]  37 07 C4 FF FF FF
  can1  381   [6]  37 07 CD FE FF FF
  can1  381   [6]  37 07 CB FE FF FF
  can1  381   [6]  37 07 C9 FE FF FF
  can1  201   [8]  00 00 00 00 00 00 0F 00
  can1  381   [6]  37 07 C7 FE FF FF
  can1  401   [6]  0F 00 00 00 00 00
  can1  381   [6]  37 03 C5 FE FF FF
  can1  481   [6]  37 03 C4 FF FF FF
  can1  501   [6]  0F 00 D2 FF FF FF
  can1  381   [6]  37 03 C3 FE FF FF
  can1  080   [0] 
  can1  181   [8]  C1 FE FF FF CD FF 37 03
  can1  201   [8]  00 00 00 00 00 00 0F 00
  can1  381   [6]  37 03 C1 FE FF FF
  can1  381   [6]  37 03 BF FE FF FF
  can1  401   [6]  0F 00 00 00 00 00
  can1  381   [6]  37 03 BD FE FF FF
  can1  501   [6]  0F 00 D2 FF FF FF
  can1  381   [6]  37 03 BB FE FF FF
  can1  381   [6]  37 03 B9 FE FF FF
  can1  481   [6]  37 07 C4 FF FF FF
  can1  381   [6]  37 07 B7 FE FF FF
  can1  7F0   [0] 
  can1  381   [6]  37 07 B6 FE FF FF
  can1  7F0   [8]  40 00 00 E6 FE 1B E7 1F
  can1  481   [6]  37 07 E2 FF FF FF
  can1  381   [6]  37 07 B4 FE FF FF
  can1  7F1   [6]  05 A8 FB 6D 01 D5
  can1  481   [6]  37 07 C4 FF FF FF
  can1  381   [6]  37 07 B3 FE FF FF
  can1  481   [6]  37 07 E2 FF FF FF
  can1  080   [0] 
  can1  381   [6]  37 07 B1 FE FF FF
  can1  181   [8]  B0 FE FF FF C4 FF 37 07
  can1  481   [6]  37 07 C4 FF FF FF
  can1  381   [6]  37 07 B0 FE FF FF
  can1  481   [6]  37 07 E2 FF FF FF
  can1  381   [6]  37 07 AE FE FF FF
  can1  481   [6]  37 07 C4 FF FF FF
  can1  381   [6]  37 07 AC FE FF FF
  can1  381   [6]  37 07 AB FE FF FF
  can1  201   [8]  00 00 00 00 00 00 0F 00
  can1  481   [6]  37 07 E2 FF FF FF
  can1  381   [6]  37 07 A9 FE FF FF
  can1  381   [6]  37 03 A8 FE FF FF
  can1  401   [6]  0F 00 00 00 00 00
  can1  481   [6]  37 03 E2 FF FF FF
  can1  481   [6]  37 07 C4 FF FF FF
  can1  381   [6]  37 07 A7 FE FF FF
  can1  381   [6]  37 03 A5 FE FF FF
  can1  481   [6]  37 03 E2 FF FF FF
  can1  481   [6]  37 07 C4 FF FF FF
  can1  381   [6]  37 07 A4 FE FF FF
  can1  501   [6]  0F 00 DC FF FF FF
  can1  481   [6]  37 07 E2 FF FF FF
  can1  381   [6]  37 07 A3 FE FF FF
  can1  381   [6]  37 03 A1 FE FF FF
  can1  080   [0] 
  can1  481   [6]  37 03 E2 FF FF FF
  can1  181   [8]  A0 FE FF FF 93 FF 37 03
  can1  201   [8]  00 00 00 00 00 00 0F 00
  can1  481   [6]  37 03 C4 FF FF FF
  can1  381   [6]  37 03 A0 FE FF FF
  can1  401   [6]  0F 00 00 00 00 00
  can1  481   [6]  37 07 E2 FF FF FF
  can1  381   [6]  37 07 9F FE FF FF
  can1  481   [6]  37 03 E2 FF FF FF
  can1  381   [6]  37 03 9D FE FF FF
  can1  381   [6]  37 03 9C FE FF FF
  can1  481   [6]  37 03 C4 FF FF FF
  can1  481   [6]  37 07 E2 FF FF FF
  can1  381   [6]  37 07 9B FE FF FF
  can1  381   [6]  37 07 9A FE FF FF
  can1  7F0   [0] 
  can1  381   [6]  37 07 98 FE FF FF
  can1  501   [6]  0F 00 DC FF FF FF
  can1  7F0   [8]  40 00 FF CE FC D3 E6 09
  can1  381   [6]  37 07 97 FE FF FF
  can1  7F1   [6]  04 85 FA 7F 00 CD
  can1  381   [6]  37 03 96 FE FF FF
  can1  481   [6]  37 03 C4 FF FF FF
  can1  481   [6]  37 07 E2 FF FF FF
  can1  381   [6]  37 07 95 FE FF FF
  can1  381   [6]  37 07 93 FE FF FF
  can1  381   [6]  37 07 92 FE FF FF
  can1  080   [0] 
  can1  181   [8]  92 FE FF FF D2 FF 37 07
  can1  381   [6]  37 07 91 FE FF FF
  can1  381   [6]  37 07 90 FE FF FF
  can1  381   [6]  37 07 8F FE FF FF
  can1  201   [8]  00 00 00 00 00 00 0F 00
  can1  481   [6]  37 07 C4 FF FF FF
  can1  381   [6]  37 07 8E FE FF FF
  can1  401   [6]  0F 00 00 00 00 00
  can1  381   [6]  37 03 8D FE FF FF
  can1  481   [6]  37 03 E2 FF FF FF
  can1  381   [6]  37 03 8C FE FF FF
  can1  501   [6]  0F 00 F4 FF FF FF
  can1  481   [6]  37 07 E2 FF FF FF
  can1  381   [6]  37 07 8B FE FF FF
  can1  381   [6]  37 03 8A FE FF FF
  can1  080   [0] 
  can1  481   [6]  37 03 E2 FF FF FF
  can1  181   [8]  89 FE FF FF CB FF 37 03
  can1  201   [8]  00 00 00 00 00 00 0F 00
  can1  381   [6]  37 03 89 FE FF FF
  can1  381   [6]  37 03 88 FE FF FF
  can1  401   [6]  0F 00 00 00 00 00
  can1  381   [6]  37 03 87 FE FF FF
  can1  381   [6]  37 03 86 FE FF FF
  can1  501   [6]  0F 00 F4 FF FF FF
  can1  481   [6]  37 07 00 00 00 00
  can1  381   [6]  37 07 85 FE FF FF
  can1  7F0   [0] 
  can1  381   [6]  37 03 85 FE FF FF
  can1  481   [6]  37 03 E2 FF FF FF
  can1  7F0   [8]  40 00 FF 68 FC 63 E5 B4
  can1  481   [6]  37 07 E2 FF FF FF
  can1  381   [6]  37 07 84 FE FF FF
  can1  080   [0] 
  can1  481   [6]  37 07 00 00 00 00
  can1  381   [6]  37 07 83 FE FF FF
  can1  181   [8]  83 FE FF FF BA FF 37 07
  can1  481   [6]  37 07 E2 FF FF FF
  can1  481   [6]  37 07 00 00 00 00
  can1  7F1   [6]  04 53 FA 57 00 B5
  can1  381   [6]  37 07 82 FE FF FF
  can1  481   [6]  37 07 E2 FF FF FF
  can1  201   [8]  00 00 00 00 00 00 0F 00
  can1  481   [6]  37 07 00 00 00 00
  can1  401   [6]  0F 00 00 00 00 00
  can1  481   [6]  37 03 00 00 00 00
  can1  381   [6]  37 03 82 FE FF FF
  can1  501   [6]  0F 00 FB FF FF FF
  can1  381   [6]  37 03 81 FE FF FF
  can1  080   [0] 
  can1  181   [8]  81 FE FF FF A2 FF 37 03
  can1  481   [6]  37 03 E2 FF FF FF
  can1  381   [6]  37 07 81 FE FF FF
  can1  201   [8]  00 00 00 00 00 00 0F 00
  can1  481   [6]  37 07 00 00 00 00
  can1  401   [6]  0F 00 00 00 00 00
  can1  501   [6]  0F 00 FB FF FF FF
  can1  381   [6]  37 03 81 FE FF FF
  can1  481   [6]  37 03 00 00 00 00
  can1  381   [6]  37 07 81 FE FF FF
  can1  481   [6]  37 07 00 00 00 00
  can1  7F0   [0] 
  can1  7F0   [8]  40 00 FF C6 FC 99 E5 F2
  can1  7F1   [6]  04 AB FA B6 00 FA
  can1  381   [6]  37 07 82 FE FF FF
  can1  080   [0] 
  can1  181   [8]  82 FE FF FF E6 FF 37 07
  can1  481   [6]  37 07 1E 00 00 00
  can1  481   [6]  37 07 00 00 00 00
  can1  381   [6]  37 07 81 FE FF FF
  can1  481   [6]  37 07 E2 FF FF FF
  can1  481   [6]  37 07 00 00 00 00
  can1  201   [8]  00 00 00 00 00 00 0F 00
  can1  381   [6]  37 03 81 FE FF FF
  can1  401   [6]  0F 00 00 00 00 00
  can1  481   [6]  37 03 00 00 00 00
  can1  381   [6]  37 07 81 FE FF FF
  can1  481   [6]  37 07 00 00 00 00
  can1  381   [6]  37 03 81 FE FF FF
  can1  481   [6]  37 03 00 00 00 00
  can1  501   [6]  0F 00 C3 FF FF FF
  can1  381   [6]  37 07 80 FE FF FF
  can1  481   [6]  37 07 E2 FF FF FF
  can1  381   [6]  37 03 80 FE FF FF
  can1  080   [0] 
  can1  481   [6]  37 03 00 00 00 00
  can1  181   [8]  80 FE FF FF EB FF 37 03
  can1  201   [8]  00 00 00 00 00 00 0F 00
  can1  401   [6]  0F 00 00 00 00 00
  can1  501   [6]  0F 00 C3 FF FF FF
  can1  381   [6]  37 03 7F FE FF FF
  can1  481   [6]  37 03 E2 FF FF FF
  can1  7F0   [0] 
  can1  7F0   [8]  40 00 FE D9 FB 8D E5 19
  can1  381   [6]  37 03 7E FE FF FF
  can1  481   [6]  37 03 00 00 00 00
  can1  481   [6]  37 03 E2 FF FF FF
  can1  381   [6]  37 03 7D FE FF FF
  can1  7F1   [6]  03 B5 F9 C7 00 7F
  can1  381   [6]  37 07 7C FE FF FF
  can1  481   [6]  37 07 E2 FF FF FF
  can1  381   [6]  37 07 7B FE FF FF
  can1  481   [6]  37 07 C4 FF FF FF
  can1  381   [6]  37 07 79 FE FF FF
  can1  381   [6]  37 07 77 FE FF FF
  can1  381   [6]  37 07 75 FE FF FF
  can1  080   [0] 
  can1  181   [8]  73 FE FF FF A2 FF 37 07
  can1  201   [8]  00 00 00 00 00 00 0F 00
  can1  381   [6]  37 07 73 FE FF FF
  can1  381   [6]  37 07 70 FE FF FF
  can1  401   [6]  0F 00 00 00 00 00
  can1  481   [6]  37 03 A6 FF FF FF
  can1  381   [6]  37 03 6D FE FF FF
  can1  381   [6]  37 03 6B FE FF FF
  can1  501   [6]  0F 00 B0 FF FF FF
  can1  481   [6]  37 07 A6 FF FF FF
  can1  381   [6]  37 07 68 FE FF FF
  can1  481   [6]  37 03 C4 FF FF FF
  can1  381   [6]  37 03 65 FE FF FF
  can1  481   [6]  37 03 A6 FF FF FF
  can1  381   [6]  37 03 62 FE FF FF
  can1  381   [6]  37 03 5F FE FF FF
  can1  481   [6]  37 07 A6 FF FF FF
  can1  080   [0] 
  can1  381   [6]  37 07 5D FE FF FF
  can1  181   [8]  5C FE FF FF C1 FF 37 07
  can1  481   [6]  37 07 C4 FF FF FF
  can1  381   [6]  37 07 5A FE FF FF
  can1  481   [6]  37 07 A6 FF FF FF
  can1  381   [6]  37 07 58 FE FF FF
  can1  7F0   [0] 
  can1  381   [6]  37 07 55 FE FF FF
  can1  7F0   [8]  40 00 FF E0 FC BD E6 08
  can1  481   [6]  37 07 C4 FF FF FF
  can1  381   [6]  37 07 52 FE FF FF
  can1  481   [6]  37 07 88 FF FF FF
  can1  381   [6]  37 07 4F FE FF FF
  can1  7F1   [6]  04 86 FA CF 01 B6
  can1  481   [6]  37 07 A6 FF FF FF
  can1  381   [6]  37 07 4C FE FF FF
  can1  481   [6]  37 07 C4 FF FF FF
  can1  381   [6]  37 07 49 FE FF FF
  can1  481   [6]  37 07 A6 FF FF FF
  can1  381   [6]  37 07 46 FE FF FF
  can1  381   [6]  37 07 43 FE FF FF
  can1  201   [8]  00 00 00 00 00 00 0F 00
  can1  381   [6]  37 07 40 FE FF FF
  can1  401   [6]  0F 00 00 00 00 00
  can1  481   [6]  37 03 A6 FF FF FF
  can1  381   [6]  37 03 3E FE FF FF
  can1  481   [6]  37 03 C4 FF FF FF
  can1  381   [6]  37 03 3B FE FF FF
  can1  481   [6]  37 07 A6 FF FF FF
  can1  381   [6]  37 07 39 FE FF FF
  can1  501   [6]  0F 00 BD FF FF FF
  can1  481   [6]  37 07 C4 FF FF FF
  can1  381   [6]  37 07 36 FE FF FF
  can1  481   [6]  37 03 A6 FF FF FF
  can1  080   [0] 
  can1  381   [6]  37 03 33 FE FF FF
  can1  181   [8]  31 FE FF FF B0 FF 37 03
  can1  201   [8]  00 00 00 00 00 00 0F 00
  can1  481   [6]  37 03 88 FF FF FF
  can1  381   [6]  37 03 30 FE FF FF
  can1  401   [6]  0F 00 00 00 00 00
  can1  481   [6]  37 07 A6 FF FF FF
  can1  381   [6]  37 07 2D FE FF FF
  can1  481   [6]  37 03 C4 FF FF FF
  can1  381   [6]  37 03 2B FE FF FF
  can1  381   [6]  37 03 28 FE FF FF
  can1  481   [6]  37 07 A6 FF FF FF
  can1  381   [6]  37 07 26 FE FF FF
  can1  501   [6]  0F 00 BD FF FF FF
  can1  381   [6]  37 07 23 FE FF FF
  can1  481   [6]  37 07 C4 FF FF FF
  can1  381   [6]  37 07 20 FE FF FF
  can1  7F0   [0] 
  can1  080   [0] 
  can1  481   [6]  37 03 A6 FF FF FF
  can1  381   [6]  37 03 1E FE FF FF
  can1  181   [8]  1D FE FF FF E6 FF 37 03
  can1  481   [6]  37 07 A6 FF FF FF
  can1  381   [6]  37 07 1B FE FF FF
  can1  481   [6]  37 07 C4 FF FF FF
  can1  381   [6]  37 07 18 FE FF FF
  can1  481   [6]  37 07 A6 FF FF FF
  can1  381   [6]  37 07 16 FE FF FF
  can1  7F0   [8]  40 00 FF F7 FC 51 E6 01
  can1  481   [6]  37 07 C4 FF FF FF
  can1  381   [6]  37 07 13 FE FF FF
  can1  481   [6]  37 07 A6 FF FF FF
  can1  381   [6]  37 07 11 FE FF FF
  can1  201   [8]  00 00 00 00 00 00 0F 00
  can1  481   [6]  37 07 C4 FF FF FF
  can1  381   [6]  37 07 0F FE FF FF
  can1  401   [6]  0F 00 00 00 00 00
  can1  381   [6]  37 03 0D FE FF FF
  can1  481   [6]  37 03 C4 FF FF FF
  can1  481   [6]  37 07 C4 FF FF FF
  can1  381   [6]  37 07 0B FE FF FF
  can1  481   [6]  37 03 C4 FF FF FF
  can1  381   [6]  37 03 09 FE FF FF
  can1  481   [6]  37 07 E2 FF FF FF
  can1  381   [6]  37 07 08 FE FF FF
  can1  481   [6]  37 07 C4 FF FF FF
  can1  381   [6]  37 07 06 FE FF FF
  can1  501   [6]  0F 00 8F FF FF FF
  can1  381   [6]  37 07 04 FE FF FF
  can1  080   [0] 
  can1  7F1   [6]  04 D1 FA E7 01 DB
  can1  181   [8]  02 FE FF FF BA FF 37 03
  can1  201   [8]  00 00 00 00 00 00 0F 00
  can1  381   [6]  37 03 02 FE FF FF
  can1  401   [6]  0F 00 00 00 00 00
  can1  481   [6]  37 03 C4 FF FF FF
  can1  481   [6]  37 03 A6 FF FF FF
  can1  381   [6]  37 03 FF FD FF FF
  can1  481   [6]  37 03 C4 FF FF FF
  can1  381   [6]  37 03 FD FD FF FF
  can1  381   [6]  37 03 FB FD FF FF
  can1  381   [6]  37 03 F9 FD FF FF
  can1  501   [6]  0F 00 8F FF FF FF
  can1  381   [6]  37 03 F7 FD FF FF
  can1  7F0   [0] 
  can1  481   [6]  37 03 A6 FF FF FF
  can1  381   [6]  37 03 F4 FD FF FF
  can1  7F0   [8]  40 00 00 73 FC 7F E6 2B
  can1  481   [6]  37 07 C4 FF FF FF
  can1  381   [6]  37 07 F1 FD FF FF
  can1  481   [6]  37 07 A6 FF FF FF
  can1  381   [6]  37 07 EE FD FF FF
  can1  7F1   [6]  05 60 FB 0D 01 CB
  can1  381   [6]  37 07 EC FD FF FF
  can1  381   [6]  37 07 E9 FD FF FF
  can1  080   [0] 
  can1  181   [8]  E6 FD FF FF 73 FF 37 07
  can1  381   [6]  37 07 E5 FD FF FF
  can1  481   [6]  37 07 6A FF FF FF
  can1  381   [6]  37 07 E0 FD FF FF
  can1  481   [6]  37 07 88 FF FF FF
  can1  381   [6]  37 07 DC FD FF FF
  can1  381   [6]  37 07 D8 FD FF FF
  can1  201   [8]  00 00 00 00 00 00 0F 00
  can1  481   [6]  37 07 6A FF FF FF
  can1  381   [6]  37 07 D3 FD FF FF
  can1  481   [6]  37 03 6A FF FF FF
  can1  381   [6]  37 03 CE FD FF FF
  can1  401   [6]  0F 00 00 00 00 00
  can1  481   [6]  37 07 88 FF FF FF
  can1  381   [6]  37 07 C9 FD FF FF
  can1  481   [6]  37 03 4C FF FF FF
  can1  381   [6]  37 03 C3 FD FF FF
  can1  501   [6]  0F 00 C2 FF FF FF
  can1  481   [6]  37 07 4C FF FF FF
  can1  080   [0] 
  can1  381   [6]  37 07 BE FD FF FF
  can1  181   [8]  BB FD FF FF 12 00 37 03
  can1  201   [8]  00 00 00 00 00 00 0F 00
  can1  381   [6]  37 03 BA FD FF FF
  can1  401   [6]  0F 00 00 00 00 00
  can1  381   [6]  37 03 B6 FD FF FF
  can1  481   [6]  37 03 88 FF FF FF
  can1  381   [6]  37 03 B2 FD FF FF
  can1  481   [6]  37 03 6A FF FF FF
  can1  381   [6]  37 03 AD FD FF FF
  can1  481   [6]  37 03 A6 FF FF FF
  can1  381   [6]  37 03 AA FD FF FF
  can1  501   [6]  0F 00 C2 FF FF FF
  can1  481   [6]  37 03 88 FF FF FF
  can1  381   [6]  37 03 A7 FD FF FF
  can1  481   [6]  37 03 A6 FF FF FF
  can1  381   [6]  37 03 A3 FD FF FF
  can1  7F0   [0] 
  can1  080   [0] 
  can1  381   [6]  37 07 A1 FD FF FF
  can1  481   [6]  37 07 A6 FF FF FF
  can1  181   [8]  A0 FD FF FF 40 00 37 07
  can1  481   [6]  37 07 C4 FF FF FF
  can1  381   [6]  37 07 9F FD FF FF
  can1  381   [6]  37 07 9D FD FF FF
  can1  7F0   [8]  40 00 00 91 FC 4F E6 0D
  can1  381   [6]  37 07 9B FD FF FF
  can1  7F1   [6]  05 19 FB 13 01 8F
  can1  481   [6]  37 07 E2 FF FF FF
  can1  381   [6]  37 07 9A FD FF FF
  can1  201   [8]  00 00 00 00 00 00 0F 00
  can1  481   [6]  37 07 C4 FF FF FF
  can1  381   [6]  37 07 98 FD FF FF
  can1  401   [6]  0F 00 00 00 00 00
  can1  381   [6]  37 03 97 FD FF FF
  can1  481   [6]  37 03 C4 FF FF FF
  can1  481   [6]  37 07 E2 FF FF FF
  can1  381   [6]  37 07 95 FD FF FF
  can1  481   [6]  37 03 C4 FF FF FF
  can1  381   [6]  37 03 93 FD FF FF
  can1  481   [6]  37 07 C4 FF FF FF
  can1  381   [6]  37 07 91 FD FF FF
  can1  501   [6]  0F 00 BC FF FF FF
  can1  381   [6]  37 07 90 FD FF FF
  can1  080   [0] 
  can1  481   [6]  37 03 E2 FF FF FF
  can1  181   [8]  8E FD FF FF C8 FF 37 03
  can1  201   [8]  00 00 00 00 00 00 0F 00
  can1  381   [6]  37 03 8E FD FF FF
  can1  381   [6]  37 03 8D FD FF FF
  can1  401   [6]  0F 00 00 00 00 00
  can1  481   [6]  37 03 C4 FF FF FF
  can1  381   [6]  37 03 8C FD FF FF
  can1  481   [6]  37 07 E2 FF FF FF
  can1  381   [6]  37 07 8A FD FF FF
  can1  481   [6]  37 03 C4 FF FF FF
  can1  381   [6]  37 03 88 FD FF FF
  can1  481   [6]  37 07 E2 FF FF FF
  can1  381   [6]  37 07 87 FD FF FF
  can1  481   [6]  37 07 C4 FF FF FF
  can1  381   [6]  37 07 85 FD FF FF
  can1  501   [6]  0F 00 BC FF FF FF
  can1  481   [6]  37 07 A6 FF FF FF
  can1  381   [6]  37 07 82 FD FF FF
  can1  7F0   [0] 
  can1  481   [6]  37 03 C4 FF FF FF
  can1  381   [6]  37 03 80 FD FF FF
  can1  481   [6]  37 07 C4 FF FF FF
  can1  381   [6]  37 07 7E FD FF FF
  can1  7F0   [8]  40 00 FF B6 FB 6E E5 46
  can1  481   [6]  37 07 A6 FF FF FF
  can1  381   [6]  37 07 7B FD FF FF
  can1  481   [6]  37 07 C4 FF FF FF
  can1  381   [6]  37 07 79 FD FF FF
  can1  7F1   [6]  04 3A FA 73 00 DF
  can1  381   [6]  37 07 77 FD FF FF
  can1  381   [6]  37 07 74 FD FF FF
  can1  481   [6]  37 07 A6 FF FF FF
  can1  381   [6]  37 07 72 FD FF FF
  can1  381   [6]  37 07 6F FD FF FF
  can1  080   [0] 
  can1  181   [8]  6E FD FF FF DE FF 37 07
  can1  481   [6]  37 07 C4 FF FF FF
  can1  201   [8]  00 00 00 00 00 00 0F 00
  can1  381   [6]  37 07 6D FD FF FF
  can1  381   [6]  37 07 6B FD FF FF
  can1  401   [6]  0F 00 00 00 00 00
  can1  481   [6]  37 03 C4 FF FF FF
  can1  381   [6]  37 03 69 FD FF FF
  can1  381   [6]  37 03 67 FD FF FF
  can1  501   [6]  0F 00 CA FF FF FF
  can1  481   [6]  37 07 C4 FF FF FF
  can1  080   [0] 
  can1  381   [6]  37 07 64 FD FF FF
  can1  181   [8]  63 FD FF FF B7 FF 37 07
  can1  201   [8]  00 00 00 00 00 00 0F 00
  can1  381   [6]  37 03 62 FD FF FF
  can1  401   [6]  0F 00 00 00 00 00
  can1  481   [6]  37 03 A6 FF FF FF
  can1  481   [6]  37 03 C4 FF FF FF
  can1  381   [6]  37 03 60 FD FF FF
  can1  381   [6]  37 03 5D FD FF FF
  can1  481   [6]  37 03 A6 FF FF FF
  can1  381   [6]  37 03 5B FD FF FF
  can1  481   [6]  37 07 C4 FF FF FF
  can1  381   [6]  37 07 59 FD FF FF
  can1  381   [6]  37 07 57 FD FF FF
  can1  501   [6]  0F 00 CA FF FF FF
  can1  7F0   [0] 
  can1  381   [6]  37 07 55 FD FF FF
  can1  7F0   [8]  40 00 FF 45 FB 43 E4 EB
  can1  481   [6]  37 03 E2 FF FF FF
  can1  381   [6]  37 03 54 FD FF FF
  can1  7F1   [6]  03 C9 F9 FE 00 6C
  can1  481   [6]  37 07 C4 FF FF FF
  can1  381   [6]  37 07 52 FD FF FF
  can1  381   [6]  37 07 50 FD FF FF
  can1  381   [6]  37 07 4F FD FF FF
  can1  481   [6]  37 07 E2 FF FF FF
  can1  381   [6]  37 07 4D FD FF FF
  can1  080   [0] 
  can1  181   [8]  4C FD FF FF AB FF 37 07
  can1  381   [6]  37 07 4C FD FF FF
  can1  481   [6]  37 07 C4 FF FF FF
  can1  201   [8]  00 00 00 00 00 00 0F 00
  can1  381   [6]  37 07 4A FD FF FF
  can1  401   [6]  0F 00 00 00 00 00
  can1  481   [6]  37 07 E2 FF FF FF
  can1  381   [6]  37 07 49 FD FF FF
  can1  481   [6]  37 03 C4 FF FF FF
  can1  381   [6]  37 03 47 FD FF FF
  can1  381   [6]  37 03 45 FD FF FF
  can1  501   [6]  0F 00 C7 FF FF FF
  can1  481   [6]  37 07 E2 FF FF FF
  can1  080   [0] 
  can1  381   [6]  37 07 44 FD FF FF
  can1  181   [8]  42 FD FF FF E3 FF 37 03
  can1  201   [8]  00 00 00 00 00 00 0F 00
  can1  481   [6]  37 03 C4 FF FF FF
  can1  381   [6]  37 03 41 FD FF FF
  can1  401   [6]  0F 00 00 00 00 00
  can1  481   [6]  37 07 C4 FF FF FF
  can1  381   [6]  37 07 40 FD FF FF
  can1  481   [6]  37 03 C4 FF FF FF
  can1  381   [6]  37 03 3E FD FF FF
  can1  381   [6]  37 03 3C FD FF FF
  can1  481   [6]  37 07 C4 FF FF FF
  can1  381   [6]  37 07 3B FD FF FF
  can1  481   [6]  37 07 E2 FF FF FF
  can1  381   [6]  37 07 39 FD FF FF
  can1  481   [6]  37 07 C4 FF FF FF
  can1  381   [6]  37 07 37 FD FF FF
  can1  501   [6]  0F 00 C7 FF FF FF
  can1  381   [6]  37 07 35 FD FF FF
  can1  7F0   [0] 
  can1  481   [6]  37 03 C4 FF FF FF
  can1  381   [6]  37 03 33 FD FF FF
  can1  7F0   [8]  40 00 FF F1 FC 59 E5 E6
  can1  481   [6]  37 07 C4 FF FF FF
  can1  080   [0] 
  can1  381   [6]  37 07 31 FD FF FF
  can1  181   [8]  2F FD FF FF ED FF 37 07
  can1  381   [6]  37 07 2F FD FF FF
  can1  381   [6]  37 07 2D FD FF FF
  can1  7F1   [6]  04 D7 FB 08 01 4D
  can1  381   [6]  37 07 2B FD FF FF
  can1  201   [8]  00 00 00 00 00 00 0F 00
  can1  381   [6]  37 07 29 FD FF FF
  can1  401   [6]  0F 00 00 00 00 00
  can1  481   [6]  37 03 C4 FF FF FF
  can1  381   [6]  37 03 26 FD FF FF
  can1  501   [6]  0F 00 9E FF FF FF
  can1  381   [6]  37 03 25 FD FF FF
  can1  481   [6]  37 03 A6 FF FF FF
  can1  381   [6]  37 03 22 FD FF FF
  can1  481   [6]  37 03 C4 FF FF FF
  can1  080   [0] 
  can1  381   [6]  37 03 20 FD FF FF
  can1  181   [8]  1F FD FF FF DC FF 37 03
  can1  201   [8]  00 00 00 00 00 00 0F 00
  can1  481   [6]  37 03 E2 FF FF FF
  can1  381   [6]  37 03 1F FD FF FF
  can1  401   [6]  0F 00 00 00 00 00
  can1  481   [6]  37 03 C4 FF FF FF
  can1  381   [6]  37 03 1D FD FF FF
  can1  381   [6]  37 03 1B FD FF FF
  can1  381   [6]  37 03 18 FD FF FF
  can1  481   [6]  37 07 A6 FF FF FF
  can1  381   [6]  37 07 16 FD FF FF
  can1  501   [6]  0F 00 9E FF FF FF
  can1  481   [6]  37 07 C4 FF FF FF
  can1  381   [6]  37 07 13 FD FF FF
  can1  481   [6]  37 03 A6 FF FF FF
  can1  381   [6]  37 03 10 FD FF FF
  can1  7F0   [0] 
  can1  481   [6]  37 07 88 FF FF FF
  can1  381   [6]  37 07 0D FD FF FF
  can1  7F0   [8]  40 00 FF FC FC 7B E5 DF
  can1  481   [6]  37 07 A6 FF FF FF
  can1  381   [6]  37 07 0A FD FF FF
  can1  7F1   [6]  04 F7 FB 2B 01 69
  can1  381   [6]  37 07 06 FD FF FF
  can1  481   [6]  37 07 88 FF FF FF
  can1  381   [6]  37 07 02 FD FF FF
  can1  481   [6]  37 07 A6 FF FF FF
  can1  080   [0] 
  can1  381   [6]  37 07 FF FC FF FF
  can1  181   [8]  FE FC FF FF BA FF 37 07
  can1  381   [6]  37 07 FC FC FF FF
  can1  481   [6]  37 07 88 FF FF FF
  can1  381   [6]  37 07 F9 FC FF FF
  can1  481   [6]  37 07 A6 FF FF FF
  can1  381   [6]  37 07 F5 FC FF FF
  can1  481   [6]  37 07 88 FF FF FF
  can1  201   [8]  00 00 00 00 00 00 0F 00
  can1  381   [6]  37 07 F1 FC FF FF
  can1  381   [6]  37 07 ED FC FF FF
  can1  401   [6]  0F 00 00 00 00 00
  can1  481   [6]  37 03 A6 FF FF FF
  can1  381   [6]  37 03 EA FC FF FF
  can1  501   [6]  0F 00 8E FF FF FF
  can1  481   [6]  37 03 88 FF FF FF
  can1  381   [6]  37 03 E6 FC FF FF
  can1  381   [6]  37 03 E2 FC FF FF
  can1  080   [0] 
  can1  181   [8]  E0 FC FF FF FC FF 37 03
  can1  201   [8]  00 00 00 00 00 00 0F 00
  can1  381   [6]  37 03 DE FC FF FF
  can1  381   [6]  37 03 DA FC FF FF
  can1  401   [6]  0F 00 00 00 00 00
  can1  481   [6]  37 03 A6 FF FF FF
  can1  381   [6]  37 03 D7 FC FF FF
  can1  501   [6]  0F 00 8E FF FF FF
  can1  481   [6]  37 03 88 FF FF FF
  can1  381   [6]  37 03 D2 FC FF FF
  can1  481   [6]  37 03 6A FF FF FF
  can1  381   [6]  37 03 CE FC FF FF
  can1  7F0   [0] 
  can1  481   [6]  37 07 A6 FF FF FF
  can1  381   [6]  37 07 CB FC FF FF
  can1  481   [6]  37 07 88 FF FF FF
  can1  381   [6]  37 07 C7 FC FF FF
  can1  7F0   [8]  40 00 FF F9 FC B2 E5 EA
  can1  381   [6]  37 07 C3 FC FF FF
  can1  7F1   [6]  05 03 FB 3C 01 79
  can1  381   [6]  37 07 BF FC FF FF
  can1  381   [6]  37 07 BB FC FF FF
  can1  381   [6]  37 07 B7 FC FF FF
  can1  080   [0] 
  can1  381   [6]  37 07 B3 FC FF FF
  can1  181   [8]  B2 FC FF FF EB FF 37 07
  can1  201   [8]  00 00 00 00 00 00 0F 00
  can1  381   [6]  37 07 AF FC FF FF
  can1  401   [6]  0F 00 00 00 00 00
  can1  381   [6]  37 07 AB FC FF FF
  can1  501   [6]  0F 00 BB FF FF FF
  can1  481   [6]  37 03 A6 FF FF FF
  can1  381   [6]  37 03 A8 FC FF FF
  can1  481   [6]  37 03 88 FF FF FF
  can1  381   [6]  37 03 A4 FC FF FF
  can1  381   [6]  37 03 A0 FC FF FF
  can1  381   [6]  37 03 9D FC FF FF
  can1  481   [6]  37 03 A6 FF FF FF
  can1  381   [6]  37 03 99 FC FF FF
  can1  481   [6]  37 03 88 FF FF FF
  can1  080   [0] 
  can1  381   [6]  37 03 95 FC FF FF
  can1  181   [8]  94 FC FF FF 6E 00 37 03
  can1  201   [8]  00 00 00 00 00 00 0F 00
  can1  481   [6]  37 03 A6 FF FF FF
  can1  381   [6]  37 03 92 FC FF FF
  can1  481   [6]  37 07 88 FF FF FF
  can1  381   [6]  37 07 8F FC FF FF
  can1  481   [6]  37 03 A6 FF FF FF
  can1  381   [6]  37 03 8C FC FF FF
  can1  481   [6]  37 07 A6 FF FF FF
  can1  381   [6]  37 07 89 FC FF FF
  can1  481   [6]  37 07 C4 FF FF FF
  can1  381   [6]  37 07 87 FC FF FF
  can1  7F0   [0] 
  can1  401   [6]  0F 00 00 00 00 00
  can1  381   [6]  37 07 84 FC FF FF
  can1  7F0   [8]  40 00 00 37 FD 24 E6 47
  can1  381   [6]  37 07 83 FC FF FF
  can1  7F1   [6]  05 35 FB 9B 01 AB
  can1  481   [6]  37 03 C4 FF FF FF
  can1  381   [6]  37 03 80 FC FF FF
  can1  481   [6]  37 07 A6 FF FF FF
  can1  381   [6]  37 07 7E FC FF FF
  can1  481   [6]  37 07 C4 FF FF FF
  can1  381   [6]  37 07 7C FC FF FF
  can1  381   [6]  37 07 7A FC FF FF
  can1  501   [6]  0F 00 BD FF FF FF
  can1  381   [6]  37 07 79 FC FF FF
  can1  080   [0] 
  can1  181   [8]  77 FC FF FF A4 FF 37 03
  can1  201   [8]  00 00 00 00 00 00 0F 00
  can1  481   [6]  37 03 E2 FF FF FF
  can1  381   [6]  37 03 77 FC FF FF
  can1  401   [6]  0F 00 00 00 00 00
  can1  481   [6]  37 07 C4 FF FF FF
  can1  381   [6]  37 07 75 FC FF FF
  can1  481   [6]  37 03 C4 FF FF FF
  can1  381   [6]  37 03 73 FC FF FF
  can1  381   [6]  37 03 72 FC FF FF
  can1  481   [6]  37 07 E2 FF FF FF
  can1  381   [6]  37 07 70 FC FF FF
  can1  481   [6]  37 07 C4 FF FF FF
  can1  381   [6]  37 07 6E FC FF FF
  can1  501   [6]  0F 00 BD FF FF FF
  can1  381   [6]  37 07 6C FC FF FF
  can1  080   [0] 
  can1  481   [6]  37 03 C4 FF FF FF
  can1  181   [8]  6A FC FF FF BF FF 37 03
  can1  201   [8]  00 00 00 00 00 00 0F 00
  can1  381   [6]  37 03 6A FC FF FF
  can1  481   [6]  37 07 C4 FF FF FF
  can1  381   [6]  37 07 68 FC FF FF
  can1  481   [6]  37 03 C4 FF FF FF
  can1  381   [6]  37 03 65 FC FF FF
  can1  481   [6]  37 07 A6 FF FF FF
  can1  381   [6]  37 07 63 FC FF FF
  can1  481   [6]  37 07 C4 FF FF FF
  can1  381   [6]  37 07 61 FC FF FF
  can1  381   [6]  37 07 5F FC FF FF
  can1  7F0   [0] 
  can1  401   [6]  0F 00 00 00 00 00
  can1  381   [6]  37 07 5D FC FF FF
  can1  7F0   [8]  40 00 00 35 FD 3F E6 4C
  can1  481   [6]  37 03 C4 FF FF FF
  can1  381   [6]  37 03 5B FC FF FF
  can1  501   [6]  0F 00 C1 FF FF FF
  can1  481   [6]  37 07 C4 FF FF FF
  can1  381   [6]  37 07 59 FC FF FF
  can1  481   [6]  37 03 C4 FF FF FF
  can1  381   [6]  37 03 57 FC FF FF
  can1  381   [6]  37 03 57 FC FF FF
  can1  481   [6]  37 07 C4 FF FF FF
  can1  381   [6]  37 07 55 FC FF FF
  can1  080   [0] 
  can1  381   [6]  37 07 53 FC FF FF
  can1  181   [8]  52 FC FF FF CB FF 37 07
  can1  201   [8]  00 00 00 00 00 00 0F 00
  can1  381   [6]  37 07 50 FC FF FF
  can1  481   [6]  37 07 A6 FF FF FF
  can1  381   [6]  37 07 4E FC FF FF
  can1  401   [6]  0F 00 00 00 00 00
  can1  481   [6]  37 03 C4 FF FF FF
  can1  381   [6]  37 03 4C FC FF FF
  can1  381   [6]  37 03 4A FC FF FF
  can1  501   [6]  0F 00 C1 FF FF FF
  can1  481   [6]  37 07 C4 FF FF FF
  can1  381   [6]  37 07 48 FC FF FF
  can1  7F1   [6]  04 FC FB 9E 01 D1
  can1  481   [6]  37 03 C4 FF FF FF
  can1  381   [6]  37 03 45 FC FF FF
  can1  481   [6]  37 07 A6 FF FF FF
  can1  381   [6]  37 07 43 FC FF FF
  can1  481   [6]  37 07 C4 FF FF FF
  can1  381   [6]  37 07 41 FC FF FF
  can1  7F0   [0] 
  can1  381   [6]  37 07 3F FC FF FF
  can1  7F0   [8]  40 00 00 64 FD D3 E6 AD
  can1  7F1   [6]  05 3F FB ED 02 6A
  can1  381   [6]  37 07 3D FC FF FF
  can1  381   [6]  37 07 3B FC FF FF
  can1  080   [0] 
  can1  181   [8]  39 FC FF FF CB FF 37 07
  can1  381   [6]  37 07 39 FC FF FF
  can1  381   [6]  37 07 37 FC FF FF
  can1  481   [6]  37 07 A6 FF FF FF
  can1  381   [6]  37 07 34 FC FF FF
  can1  481   [6]  37 07 C4 FF FF FF
  can1  381   [6]  37 07 32 FC FF FF
  can1  381   [6]  37 07 30 FC FF FF
  can1  381   [6]  37 07 2E FC FF FF
  can1  201   [8]  00 00 00 00 00 00 0F 00
  can1  381   [6]  37 07 2C FC FF FF
  can1  401   [6]  0F 00 00 00 00 00
  can1  481   [6]  37 03 E2 FF FF FF
  can1  381   [6]  37 03 2B FC FF FF
  can1  501   [6]  0F 00 D2 FF FF FF
  can1  481   [6]  37 03 C4 FF FF FF
  can1  381   [6]  37 03 29 FC FF FF
  can1  381   [6]  37 03 27 FC FF FF
  can1  080   [0] 
  can1  181   [8]  25 FC FF FF CB FF 37 03
  can1  201   [8]  00 00 00 00 00 00 0F 00
  can1  381   [6]  37 03 25 FC FF FF
  can1  381   [6]  37 03 23 FC FF FF
  can1  401   [6]  0F 00 00 00 00 00
  can1  381   [6]  37 03 21 FC FF FF
  can1  501   [6]  0F 00 D2 FF FF FF
  can1  381   [6]  37 03 1F FC FF FF
  can1  381   [6]  37 03 1D FC FF FF
  can1  481   [6]  37 07 E2 FF FF FF
  can1  381   [6]  37 07 1C FC FF FF
  can1  7F0   [0] 
  can1  481   [6]  37 07 C4 FF FF FF
  can1  381   [6]  37 07 1A FC FF FF
  can1  7F0   [8]  40 00 FF A7 FE 01 E6 64
  can1  381   [6]  37 07 19 FC FF FF
  can1  7F1   [6]  04 E0 FB 85 02 A3
  can1  481   [6]  37 07 E2 FF FF FF
  can1  381   [6]  37 07 17 FC FF FF
  can1  080   [0] 
  can1  481   [6]  37 07 C4 FF FF FF
  can1  181   [8]  15 FC FF FF C1 FF 37 07
  can1  381   [6]  37 07 15 FC FF FF
  can1  381   [6]  37 07 14 FC FF FF
  can1  201   [8]  00 00 00 00 00 00 0F 00
  can1  481   [6]  37 07 E2 FF FF FF
  can1  381   [6]  37 07 12 FC FF FF
  can1  481   [6]  37 03 E2 FF FF FF
  can1  381   [6]  37 03 11 FC FF FF
  can1  481   [6]  37 07 C4 FF FF FF
  can1  381   [6]  37 07 10 FC FF FF
  can1  481   [6]  37 07 E2 FF FF FF
  can1  381   [6]  37 07 0F FC FF FF
  can1  401   [6]  0F 00 00 00 00 00
  can1  381   [6]  37 07 0D FC FF FF
  can1  501   [6]  0F 00 D4 FF FF FF
  can1  481   [6]  37 03 E2 FF FF FF
  can1  381   [6]  37 03 0C FC FF FF
  can1  381   [6]  37 03 0B FC FF FF
  can1  080   [0] 
  can1  481   [6]  37 07 C4 FF FF FF
  can1  181   [8]  0A FC FF FF FC FF 37 07
  can1  381   [6]  37 07 0A FC FF FF
  can1  201   [8]  00 00 00 00 00 00 0F 00
  can1  481   [6]  37 07 E2 FF FF FF
  can1  381   [6]  37 07 08 FC FF FF
  can1  401   [6]  0F 00 00 00 00 00
  can1  481   [6]  37 07 C4 FF FF FF
  can1  381   [6]  37 07 06 FC FF FF
  can1  481   [6]  37 03 E2 FF FF FF
  can1  381   [6]  37 03 05 FC FF FF
  can1  481   [6]  37 03 C4 FF FF FF
  can1  381   [6]  37 03 03 FC FF FF
  can1  481   [6]  37 07 C4 FF FF FF
  can1  381   [6]  37 07 02 FC FF FF
  can1  481   [6]  37 07 E2 FF FF FF
  can1  381   [6]  37 07 00 FC FF FF
  can1  481   [6]  37 07 C4 FF FF FF
  can1  381   [6]  37 07 FE FB FF FF
  can1  501   [6]  0F 00 D4 FF FF FF
  can1  481   [6]  37 07 E2 FF FF FF
  can1  381   [6]  37 07 FD FB FF FF
  can1  481   [6]  37 03 C4 FF FF FF
  can1  381   [6]  37 03 FC FB FF FF
  can1  7F0   [0] 
  can1  481   [6]  37 07 E2 FF FF FF
  can1  381   [6]  37 07 FA FB FF FF
  can1  7F0   [8]  40 00 FD B0 FD 33 E4 E7
  can1  481   [6]  37 07 C4 FF FF FF
  can1  381   [6]  37 07 F8 FB FF FF
  can1  481   [6]  37 07 E2 FF FF FF
  can1  381   [6]  37 07 F7 FB FF FF
  can1  481   [6]  37 07 C4 FF FF FF
  can1  381   [6]  37 07 F5 FB FF FF
  can1  7F1   [6]  03 65 FA 1A 01 AB
  can1  481   [6]  37 07 E2 FF FF FF
  can1  381   [6]  37 07 F4 FB FF FF
  can1  481   [6]  37 07 C4 FF FF FF
  can1  381   [6]  37 07 F2 FB FF FF
  can1  080   [0] 
  can1  381   [6]  37 07 F1 FB FF FF
  can1  181   [8]  F0 FB FF FF D7 FF 37 07
  can1  201   [8]  00 00 00 00 00 00 0F 00
  can1  481   [6]  37 07 E2 FF FF FF
  can1  381   [6]  37 07 EF FB FF FF
  can1  381   [6]  37 07 EE FB FF FF
  can1  401   [6]  0F 00 00 00 00 00
  can1  481   [6]  37 03 C4 FF FF FF
  can1  381   [6]  37 03 EC FB FF FF
  can1  481   [6]  37 03 E2 FF FF FF
  can1  381   [6]  37 03 EB FB FF FF
  can1  481   [6]  37 07 C4 FF FF FF
  can1  381   [6]  37 07 EA FB FF FF
  can1  501   [6]  0F 00 E7 FF FF FF
  can1  481   [6]  37 07 E2 FF FF FF
  can1  080   [0] 
  can1  381   [6]  37 07 E8 FB FF FF
  can1  181   [8]  E7 FB FF FF D5 FF 37 03
  can1  201   [8]  00 00 00 00 00 00 0F 00
  can1  381   [6]  37 03 E7 FB FF FF
  can1  401   [6]  0F 00 00 00 00 00
  can1  481   [6]  37 03 E2 FF FF FF
  can1  481   [6]  37 03 C4 FF FF FF
  can1  381   [6]  37 03 E5 FB FF FF
  can1  481   [6]  37 03 E2 FF FF FF
  can1  381   [6]  37 03 E4 FB FF FF
  can1  481   [6]  37 03 C4 FF FF FF
  can1  381   [6]  37 03 E2 FB FF FF
  can1  481   [6]  37 07 E2 FF FF FF
  can1  381   [6]  37 07 E1 FB FF FF
  can1  381   [6]  37 07 E0 FB FF FF
  can1  7F0   [0] 
  can1  381   [6]  37 07 DF FB FF FF
  can1  501   [6]  0F 00 E7 FF FF FF
  can1  7F0   [8]  40 00 FD 43 FD 73 E4 BB
  can1  381   [6]  37 07 DE FB FF FF
  can1  481   [6]  37 03 E2 FF FF FF
  can1  7F1   [6]  03 47 FA 67 02 47
  can1  381   [6]  37 03 DE FB FF FF
  can1  481   [6]  37 07 00 00 00 00
  can1  381   [6]  37 07 DD FB FF FF
  can1  481   [6]  37 07 E2 FF FF FF
  can1  481   [6]  37 07 00 00 00 00
  can1  381   [6]  37 07 DC FB FF FF
  can1  481   [6]  37 07 E2 FF FF FF
  can1  381   [6]  37 07 DB FB FF FF
  can1  481   [6]  37 07 00 00 00 00
  can1  381   [6]  37 07 DA FB FF FF
  can1  481   [6]  37 07 E2 FF FF FF
  can1  381   [6]  37 07 D9 FB FF FF
  can1  481   [6]  37 07 00 00 00 00
  can1  481   [6]  37 07 E2 FF FF FF
  can1  381   [6]  37 07 D8 FB FF FF
  can1  381   [6]  37 07 D7 FB FF FF
  can1  381   [6]  37 07 D6 FB FF FF
  can1  481   [6]  37 07 00 00 00 00
  can1  481   [6]  37 07 E2 FF FF FF
  can1  381   [6]  37 07 D5 FB FF FF
  can1  080   [0] 
  can1  181   [8]  D5 FB FF FF A6 FF 37 07
  can1  481   [6]  37 07 00 00 00 00
  can1  381   [6]  37 07 D4 FB FF FF
  can1  481   [6]  37 07 E2 FF FF FF
  can1  381   [6]  37 07 D3 FB FF FF
  can1  201   [8]  00 00 00 00 00 00 0F 00
  can1  381   [6]  37 07 D2 FB FF FF
  can1  481   [6]  37 07 00 00 00 00
  can1  381   [6]  37 03 D2 FB FF FF
  can1  481   [6]  37 03 E2 FF FF FF
  can1  381   [6]  37 07 D1 FB FF FF
  can1  401   [6]  0F 00 00 00 00 00
  can1  481   [6]  37 07 E2 FF FF FF
  can1  381   [6]  37 07 D0 FB FF FF
  can1  501   [6]  0F 00 D9 FF FF FF
  can1  381   [6]  37 03 CF FB FF FF
  can1  080   [0] 
  can1  481   [6]  37 03 E2 FF FF FF
  can1  381   [6]  37 03 CE FB FF FF
  can1  481   [6]  37 03 00 00 00 00
  can1  181   [8]  CE FB FF FF D7 FF 37 03
  can1  381   [6]  37 03 CD FB FF FF
  can1  481   [6]  37 03 E2 FF FF FF
  can1  381   [6]  37 07 CD FB FF FF
  can1  481   [6]  37 07 E2 FF FF FF
  can1  381   [6]  37 07 CC FB FF FF
  can1  7F0   [0] 
  can1  381   [6]  37 07 CB FB FF FF
  can1  7F0   [8]  40 00 FB E5 FC FF E4 01
  can1  7F1   [6]  03 1B FA 63 02 09
  can1  381   [6]  37 07 C9 FB FF FF
  can1  381   [6]  37 07 C8 FB FF FF
  can1  481   [6]  37 07 C4 FF FF FF
  can1  381   [6]  37 07 C7 FB FF FF
  can1  481   [6]  37 07 E2 FF FF FF
  can1  381   [6]  37 07 C5 FB FF FF
  can1  481   [6]  37 07 C4 FF FF FF
  can1  381   [6]  37 07 C4 FB FF FF
  can1  481   [6]  37 07 E2 FF FF FF
  can1  381   [6]  37 07 C2 FB FF FF
  can1  481   [6]  37 07 C4 FF FF FF
  can1  381   [6]  37 07 C1 FB FF FF
  can1  201   [8]  00 00 00 00 00 00 0F 00
  can1  481   [6]  37 07 E2 FF FF FF
  can1  381   [6]  37 07 C0 FB FF FF
  can1  381   [6]  37 03 BE FB FF FF
  can1  481   [6]  37 03 E2 FF FF FF
  can1  481   [6]  37 07 E2 FF FF FF
  can1  381   [6]  37 07 BD FB FF FF
  can1  481   [6]  37 07 C4 FF FF FF
  can1  381   [6]  37 07 BC FB FF FF
  can1  481   [6]  37 07 E2 FF FF FF
  can1  381   [6]  37 07 BA FB FF FF
  can1  381   [6]  37 07 B9 FB FF FF
  can1  481   [6]  37 07 C4 FF FF FF
  can1  381   [6]  37 07 B7 FB FF FF
  can1  381   [6]  37 07 B6 FB FF FF
  can1  481   [6]  37 07 E2 FF FF FF
  can1  381   [6]  37 07 B4 FB FF FF
  can1  481   [6]  37 07 C4 FF FF FF
  can1  381   [6]  37 07 B2 FB FF FF
  can1  381   [6]  37 07 B1 FB FF FF
  can1  481   [6]  37 07 E2 FF FF FF
  can1  381   [6]  37 07 AF FB FF FF
  can1  481   [6]  37 07 C4 FF FF FF
  can1  381   [6]  37 07 AE FB FF FF
  can1  481   [6]  37 07 E2 FF FF FF
  can1  381   [6]  37 07 AD FB FF FF
  can1  381   [6]  37 07 AB FB FF FF
  can1  401   [6]  0F 00 00 00 00 00
  can1  481   [6]  37 07 C4 FF FF FF
  can1  381   [6]  37 07 AA FB FF FF
  can1  481   [6]  37 03 E2 FF FF FF
  can1  381   [6]  37 03 A8 FB FF FF
  can1  481   [6]  37 07 E2 FF FF FF
  can1  381   [6]  37 07 A7 FB FF FF
  can1  481   [6]  37 07 C4 FF FF FF
  can1  381   [6]  37 07 A6 FB FF FF
  can1  481   [6]  37 07 E2 FF FF FF
  can1  381   [6]  37 07 A4 FB FF FF
  can1  481   [6]  37 07 C4 FF FF FF
  can1  381   [6]  37 07 A3 FB FF FF
  can1  501   [6]  0F 00 D9 FF FF FF
  can1  481   [6]  37 07 E2 FF FF FF
  can1  381   [6]  37 07 A2 FB FF FF
  can1  481   [6]  37 03 E2 FF FF FF
  can1  381   [6]  37 03 A0 FB FF FF
  can1  481   [6]  37 07 E2 FF FF FF
  can1  381   [6]  37 07 9F FB FF FF
  can1  7F0   [0] 
  can1  481   [6]  37 07 C4 FF FF FF
  can1  381   [6]  37 07 9E FB FF FF
  can1  7F0   [8]  40 00 FB A1 FC C7 E3 E1
  can1  481   [6]  37 07 E2 FF FF FF
  can1  381   [6]  37 07 9C FB FF FF
  can1  7F1   [6]  03 FA FA F4 02 44
  can1  381   [6]  37 07 9B FB FF FF
  can1  381   [6]  37 07 9A FB FF FF
  can1  481   [6]  37 07 C4 FF FF FF
  can1  080   [0] 
  can1  381   [6]  37 07 99 FB FF FF
  can1  181   [8]  98 FB FF FF 08 00 37 07
  can1  481   [6]  37 07 E2 FF FF FF
  can1  381   [6]  37 07 97 FB FF FF
  can1  381   [6]  37 07 96 FB FF FF
  can1  481   [6]  37 07 C4 FF FF FF
  can1  381   [6]  37 07 95 FB FF FF
  can1  481   [6]  37 07 E2 FF FF FF
  can1  381   [6]  37 07 93 FB FF FF
  can1  481   [6]  37 07 C4 FF FF FF
  can1  381   [6]  37 07 92 FB FF FF
  can1  481   [6]  37 07 E2 FF FF FF
  can1  381   [6]  37 07 91 FB FF FF
  can1  381   [6]  37 07 90 FB FF FF
  can1  201   [8]  00 00 00 00 00 00 0F 00
  can1  381   [6]  37 07 8F FB FF FF
  can1  381   [6]  37 03 8E FB FF FF
  can1  481   [6]  37 03 E2 FF FF FF
  can1  481   [6]  37 07 E2 FF FF FF
  can1  381   [6]  37 07 8C FB FF FF
  can1  381   [6]  37 07 8B FB FF FF
  can1  401   [6]  0F 00 00 00 00 00
  can1  381   [6]  37 07 8A FB FF FF
  can1  501   [6]  0F 00 94 FF FF FF
  can1  481   [6]  37 03 C4 FF FF FF
  can1  080   [0] 
  can1  381   [6]  37 03 89 FB FF FF
  can1  181   [8]  88 FB FF FF F9 FF 37 03
  can1  201   [8]  00 00 00 00 00 00 0F 00
  can1  381   [6]  37 03 87 FB FF FF
  can1  401   [6]  0F 00 00 00 00 00
  can1  481   [6]  37 03 E2 FF FF FF
  can1  381   [6]  37 03 86 FB FF FF
  can1  381   [6]  37 03 85 FB FF FF
  can1  481   [6]  37 03 C4 FF FF FF
  can1  381   [6]  37 03 83 FB FF FF
  can1  481   [6]  37 03 E2 FF FF FF
  can1  381   [6]  37 03 82 FB FF FF
  can1  501   [6]  0F 00 94 FF FF FF
  can1  481   [6]  37 03 C4 FF FF FF
  can1  080   [0] 
  can1  381   [6]  37 03 80 FB FF FF
  can1  181   [8]  7F FB FF FF 73 FF 37 03
  can1  381   [6]  37 03 7E FB FF FF
  can1  7F0   [0] 
  can1  381   [6]  37 03 7C FB FF FF
  can1  7F0   [8]  40 00 FB 4C FB B7 E3 57
  can1  481   [6]  37 07 C4 FF FF FF
  can1  201   [8]  00 00 00 00 00 00 0F 00
  can1  381   [6]  37 07 7A FB FF FF
  can1  481   [6]  37 07 A6 FF FF FF
  can1  381   [6]  37 07 76 FB FF FF
  can1  481   [6]  37 03 88 FF FF FF
  can1  381   [6]  37 03 73 FB FF FF
  can1  481   [6]  37 07 A6 FF FF FF
  can1  381   [6]  37 07 6F FB FF FF
  can1  7F1   [6]  04 57 FB 79 02 33
  can1  481   [6]  37 07 88 FF FF FF
  can1  381   [6]  37 07 6C FB FF FF
  can1  481   [6]  37 07 A6 FF FF FF
  can1  381   [6]  37 07 68 FB FF FF
  can1  401   [6]  0F 00 00 00 00 00
  can1  481   [6]  37 07 88 FF FF FF
  can1  381   [6]  37 07 64 FB FF FF
  can1  381   [6]  37 03 5F FB FF FF
  can1  481   [6]  37 03 6A FF FF FF
  can1  501   [6]  0F 00 94 FF FF FF
  can1  481   [6]  37 07 88 FF FF FF
  can1  080   [0] 
  can1  381   [6]  37 07 5B FB FF FF
  can1  181   [8]  56 FB FF FF DA FF 37 03
  can1  201   [8]  00 00 00 00 00 00 0F 00
  can1  381   [6]  37 03 56 FB FF FF
  can1  401   [6]  0F 00 00 00 00 00
  can1  481   [6]  37 03 6A FF FF FF
  can1  481   [6]  37 07 6A FF FF FF
  can1  381   [6]  37 07 51 FB FF FF
  can1  381   [6]  37 03 4D FB FF FF
  can1  481   [6]  37 03 88 FF FF FF
  can1  481   [6]  37 03 6A FF FF FF
  can1  381   [6]  37 03 48 FB FF FF
  can1  481   [6]  37 07 6A FF FF FF
  can1  381   [6]  37 07 43 FB FF FF
  can1  481   [6]  37 07 88 FF FF FF
  can1  381   [6]  37 07 3F FB FF FF
  can1  381   [6]  37 07 3B FB FF FF
  can1  481   [6]  37 07 6A FF FF FF
  can1  381   [6]  37 07 37 FB FF FF
  can1  481   [6]  37 07 A6 FF FF FF
  can1  381   [6]  37 07 33 FB FF FF
  can1  501   [6]  0F 00 94 FF FF FF
  can1  481   [6]  37 07 88 FF FF FF
  can1  381   [6]  37 07 30 FB FF FF
  can1  7F0   [0] 
  can1  481   [6]  37 03 A6 FF FF FF
  can1  381   [6]  37 03 2C FB FF FF
  can1  7F0   [8]  40 00 FB 1F FB 27 E3 17
  can1  481   [6]  37 07 88 FF FF FF
  can1  381   [6]  37 07 28 FB FF FF
  can1  381   [6]  37 07 24 FB FF FF
  can1  7F1   [6]  04 BA FC 26 02 37
  can1  381   [6]  37 07 20 FB FF FF
  can1  381   [6]  37 07 1D FB FF FF
  can1  080   [0] 
  can1  181   [8]  1A FB FF FF 0A 00 37 07
  can1  481   [6]  37 07 A6 FF FF FF
  can1  381   [6]  37 07 19 FB FF FF
  can1  481   [6]  37 07 88 FF FF FF
  can1  381   [6]  37 07 15 FB FF FF
  can1  381   [6]  37 07 11 FB FF FF
  can1  201   [8]  00 00 00 00 00 00 0F 00
  can1  381   [6]  37 07 0E FB FF FF
  can1  401   [6]  0F 00 00 00 00 00
  can1  381   [6]  37 03 0A FB FF FF
  can1  481   [6]  37 03 88 FF FF FF
  can1  501   [6]  0F 00 8E FF FF FF
  can1  381   [6]  37 03 06 FB FF FF
  can1  080   [0] 
  can1  381   [6]  37 03 02 FB FF FF
  can1  181   [8]  02 FB FF FF 05 00 37 03
  can1  201   [8]  00 00 00 00 00 00 0F 00
  can1  481   [6]  37 03 A6 FF FF FF
  can1  381   [6]  37 03 FE FA FF FF
  can1  401   [6]  0F 00 00 00 00 00
  can1  481   [6]  37 03 88 FF FF FF
  can1  381   [6]  37 03 FB FA FF FF
  can1  481   [6]  37 07 88 FF FF FF
  can1  381   [6]  37 07 F7 FA FF FF
  can1  381   [6]  37 03 F3 FA FF FF
  can1  481   [6]  37 03 88 FF FF FF
  can1  481   [6]  37 07 A6 FF FF FF
  can1  381   [6]  37 07 EF FA FF FF
  can1  481   [6]  37 07 88 FF FF FF
  can1  381   [6]  37 07 EC FA FF FF
  can1  501   [6]  0F 00 8E FF FF FF
  can1  481   [6]  37 07 A6 FF FF FF
  can1  381   [6]  37 07 E8 FA FF FF
  can1  481   [6]  37 03 88 FF FF FF
  can1  381   [6]  37 03 E5 FA FF FF
  can1  7F0   [0] 
  can1  481   [6]  37 07 A6 FF FF FF
  can1  080   [0] 
  can1  381   [6]  37 07 E2 FA FF FF
  can1  181   [8]  DF FA FF FF A2 FF 37 07
  can1  381   [6]  37 07 DE FA FF FF
  can1  481   [6]  37 07 88 FF FF FF
  can1  381   [6]  37 07 DB FA FF FF
  can1  7F0   [8]  40 00 FA DD FA 1D E2 88
  can1  381   [6]  37 07 D7 FA FF FF
  can1  7F1   [6]  05 0D FC AB 01 78
  can1  381   [6]  37 07 D3 FA FF FF
  can1  381   [6]  37 07 CF FA FF FF
  can1  481   [6]  37 07 A6 FF FF FF
  can1  201   [8]  00 00 00 00 00 00 0F 00
  can1  381   [6]  37 07 CC FA FF FF
  can1  381   [6]  37 07 C9 FA FF FF
  can1  401   [6]  0F 00 00 00 00 00
  can1  381   [6]  37 03 C5 FA FF FF
  can1  481   [6]  37 03 88 FF FF FF
  can1  501   [6]  0F 00 8E FF FF FF
  can1  381   [6]  37 03 C0 FA FF FF
  can1  080   [0] 
  can1  181   [8]  BD FA FF FF C6 FF 37 03
  can1  201   [8]  00 00 00 00 00 00 0F 00
  can1  381   [6]  37 03 BC FA FF FF
  can1  401   [6]  0F 00 00 00 00 00
  can1  381   [6]  37 07 B8 FA FF FF
  can1  481   [6]  37 07 88 FF FF FF
  can1  381   [6]  37 03 B4 FA FF FF
  can1  481   [6]  37 03 88 FF FF FF
  can1  481   [6]  37 03 6A FF FF FF
  can1  381   [6]  37 03 AF FA FF FF
  can1  481   [6]  37 07 88 FF FF FF
  can1  381   [6]  37 07 AB FA FF FF
  can1  501   [6]  0F 00 65 FF FF FF
  can1  381   [6]  37 07 A7 FA FF FF
  can1  381   [6]  37 03 A3 FA FF FF
  can1  481   [6]  37 03 88 FF FF FF
  can1  7F0   [0] 
  can1  381   [6]  37 03 9F FA FF FF
  can1  7F0   [8]  40 00 FA 57 F8 77 E1 A5
  can1  7F1   [6]  05 0E FD 4E 00 A9
  can1  381   [6]  37 03 9B FA FF FF
  can1  080   [0] 
  can1  181   [8]  97 FA FF FF B0 FF 37 03
  can1  381   [6]  37 03 97 FA FF FF
  can1  381   [6]  37 03 93 FA FF FF
  can1  481   [6]  37 07 88 FF FF FF
  can1  381   [6]  37 07 8F FA FF FF
  can1  381   [6]  37 07 8B FA FF FF
  can1  481   [6]  37 07 6A FF FF FF
  can1  381   [6]  37 07 86 FA FF FF
  can1  201   [8]  00 00 00 00 00 00 0F 00
  can1  381   [6]  37 07 81 FA FF FF
  can1  401   [6]  0F 00 00 00 00 00
  can1  481   [6]  37 07 88 FF FF FF
  can1  381   [6]  37 07 7D FA FF FF
  can1  481   [6]  37 03 4C FF FF FF
  can1  381   [6]  37 03 77 FA FF FF
  can1  481   [6]  37 07 6A FF FF FF
  can1  381   [6]  37 07 72 FA FF FF
  can1  501   [6]  0F 00 5B FF FF FF
  can1  381   [6]  37 07 6C FA FF FF
  can1  080   [0] 
  can1  181   [8]  67 FA FF FF C6 FF 37 03
  can1  201   [8]  00 00 00 00 00 00 0F 00
  can1  381   [6]  37 03 66 FA FF FF
  can1  401   [6]  0F 00 00 00 00 00
  can1  381   [6]  37 03 60 FA FF FF
  can1  481   [6]  37 03 4C FF FF FF
  can1  381   [6]  37 03 5B FA FF FF
  can1  501   [6]  0F 00 5B FF FF FF
  can1  381   [6]  37 03 54 FA FF FF
  can1  080   [0] 
  can1  181   [8]  4F FA FF FF DC FF 37 03
  can1  381   [6]  37 03 4E FA FF FF
  can1  481   [6]  37 07 4C FF FF FF
  can1  381   [6]  37 07 49 FA FF FF
  can1  7F0   [0] 
  can1  481   [6]  37 07 6A FF FF FF
  can1  381   [6]  37 07 44 FA FF FF
  can1  7F0   [8]  40 00 F9 79 F6 59 E0 51
  can1  481   [6]  37 07 4C FF FF FF
  can1  381   [6]  37 07 3E FA FF FF
  can1  481   [6]  37 07 6A FF FF FF
  can1  381   [6]  37 07 39 FA FF FF
  can1  481   [6]  37 07 4C FF FF FF
  can1  381   [6]  37 07 32 FA FF FF
  can1  7F1   [6]  04 DF FD 97 FF 9C
  can1  381   [6]  37 07 2D FA FF FF
  can1  481   [6]  37 07 6A FF FF FF
  can1  201   [8]  00 00 00 00 00 00 0F 00
  can1  381   [6]  37 07 27 FA FF FF
  can1  481   [6]  37 07 4C FF FF FF
  can1  381   [6]  37 07 21 FA FF FF
  can1  401   [6]  0F 00 00 00 00 00
  can1  481   [6]  37 03 4C FF FF FF
  can1  381   [6]  37 03 1B FA FF FF
  can1  381   [6]  37 03 15 FA FF FF
  can1  481   [6]  37 03 2E FF FF FF
  can1  481   [6]  37 07 4C FF FF FF
  can1  381   [6]  37 07 0E FA FF FF
  can1  501   [6]  0F 00 5B FF FF FF
  can1  381   [6]  37 07 09 FA FF FF
  can1  381   [6]  37 03 03 FA FF FF
  can1  080   [0] 
  can1  481   [6]  37 03 4C FF FF FF
  can1  181   [8]  FF F9 FF FF 1E 00 37 07
  can1  201   [8]  00 00 00 00 00 00 0F 00
  can1  481   [6]  37 07 6A FF FF FF
  can1  381   [6]  37 07 FE F9 FF FF
  can1  401   [6]  0F 00 00 00 00 00
  can1  481   [6]  37 07 4C FF FF FF
  can1  381   [6]  37 07 F8 F9 FF FF
  can1  381   [6]  37 03 F3 F9 FF FF
  can1  481   [6]  37 03 6A FF FF FF
  can1  481   [6]  37 03 4C FF FF FF
  can1  381   [6]  37 03 ED F9 FF FF
  can1  481   [6]  37 07 6A FF FF FF
  can1  381   [6]  37 07 E7 F9 FF FF
  can1  481   [6]  37 07 4C FF FF FF
  can1  381   [6]  37 07 E1 F9 FF FF
  can1  381   [6]  37 07 DC F9 FF FF
  can1  501   [6]  0F 00 3C FF FF FF
  can1  481   [6]  37 07 6A FF FF FF
  can1  381   [6]  37 07 D6 F9 FF FF
  can1  7F0   [0] 
  can1  381   [6]  37 03 D1 F9 FF FF
  can1  481   [6]  37 03 4C FF FF FF
  can1  381   [6]  37 03 CB F9 FF FF
  can1  7F0   [8]  40 00 F8 2D F3 94 DE 4B
  can1  481   [6]  37 03 6A FF FF FF
  can1  381   [6]  37 03 C6 F9 FF FF
  can1  7F1   [6]  04 31 FD 67 FE 86
  can1  481   [6]  37 03 4C FF FF FF
  can1  381   [6]  37 03 C0 F9 FF FF
  can1  481   [6]  37 07 4C FF FF FF
  can1  381   [6]  37 07 B9 F9 FF FF
  can1  080   [0] 
  can1  181   [8]  B4 F9 FF FF C8 FF 37 07
  can1  381   [6]  37 07 B4 F9 FF FF
  can1  481   [6]  37 07 6A FF FF FF
  can1  201   [8]  00 00 00 00 00 00 0F 00
  can1  381   [6]  37 07 AE F9 FF FF
  can1  401   [6]  0F 00 00 00 00 00
  can1  481   [6]  37 07 4C FF FF FF
  can1  381   [6]  37 07 A8 F9 FF FF
  can1  381   [6]  37 03 A2 F9 FF FF
  can1  481   [6]  37 03 4C FF FF FF
  can1  381   [6]  37 03 9C F9 FF FF
  can1  481   [6]  37 03 2E FF FF FF
  can1  481   [6]  37 07 4C FF FF FF
  can1  381   [6]  37 07 95 F9 FF FF
  can1  501   [6]  0F 00 2C FF FF FF
  can1  481   [6]  37 07 2E FF FF FF
  can1  080   [0] 
  can1  381   [6]  37 07 8F F9 FF FF
  can1  181   [8]  88 F9 FF FF C6 FF 37 03
  can1  201   [8]  00 00 00 00 00 00 0F 00
  can1  381   [6]  37 03 88 F9 FF FF
  can1  401   [6]  0F 00 00 00 00 00
  can1  481   [6]  37 03 4C FF FF FF
  can1  381   [6]  37 03 81 F9 FF FF
  can1  481   [6]  37 03 2E FF FF FF
  can1  381   [6]  37 03 7B F9 FF FF
  can1  381   [6]  37 03 73 F9 FF FF
  can1  481   [6]  37 07 2E FF FF FF
  can1  381   [6]  37 07 6C F9 FF FF
  can1  7F0   [0] 
  can1  381   [6]  37 07 65 F9 FF FF
  can1  501   [6]  0F 00 2C FF FF FF
  can1  481   [6]  37 07 10 FF FF FF
  can1  381   [6]  37 07 5E F9 FF FF
  can1  7F0   [8]  40 00 F6 F9 F1 5A DC C1
  can1  481   [6]  37 03 2E FF FF FF
  can1  381   [6]  37 03 56 F9 FF FF
  can1  481   [6]  37 07 2E FF FF FF
  can1  381   [6]  37 07 4F F9 FF FF
  can1  7F1   [6]  03 A7 FC E3 FE 0F
  can1  381   [6]  37 07 48 F9 FF FF
  can1  481   [6]  37 07 10 FF FF FF
  can1  381   [6]  37 07 41 F9 FF FF
  can1  481   [6]  37 07 2E FF FF FF
  can1  080   [0] 
  can1  381   [6]  37 07 3A F9 FF FF
  can1  181   [8]  36 F9 FF FF D2 FF 37 07
  can1  201   [8]  00 00 00 00 00 00 0F 00
  can1  381   [6]  37 07 32 F9 FF FF
  can1  381   [6]  37 07 2B F9 FF FF
  can1  401   [6]  0F 00 00 00 00 00
  can1  481   [6]  37 03 2E FF FF FF
  can1  381   [6]  37 03 24 F9 FF FF
  can1  501   [6]  0F 00 0F FF FF FF
  can1  381   [6]  37 03 1C F9 FF FF
  can1  080   [0] 
  can1  481   [6]  37 03 10 FF FF FF
  can1  181   [8]  15 F9 FF FF 08 00 37 03
  can1  201   [8]  00 00 00 00 00 00 0F 00
  can1  381   [6]  37 03 14 F9 FF FF
  can1  401   [6]  0F 00 00 00 00 00
  can1  481   [6]  37 03 2E FF FF FF
  can1  381   [6]  37 03 0D F9 FF FF
  can1  381   [6]  37 03 06 F9 FF FF
  can1  481   [6]  37 03 10 FF FF FF
  can1  381   [6]  37 03 FF F8 FF FF
  can1  481   [6]  37 07 2E FF FF FF
  can1  381   [6]  37 07 F7 F8 FF FF
  can1  481   [6]  37 07 10 FF FF FF
  can1  381   [6]  37 07 EF F8 FF FF
  can1  501   [6]  0F 00 0F FF FF FF
  can1  481   [6]  37 07 2E FF FF FF
  can1  381   [6]  37 07 E8 F8 FF FF
  can1  481   [6]  37 03 10 FF FF FF
  can1  381   [6]  37 03 E0 F8 FF FF
  can1  7F0   [0] 
  can1  481   [6]  37 07 2E FF FF FF
  can1  381   [6]  37 07 D9 F8 FF FF
  can1  7F0   [8]  40 00 F7 45 F0 A2 DC B5
  can1  381   [6]  37 07 D1 F8 FF FF
  can1  481   [6]  37 07 10 FF FF FF
  can1  381   [6]  37 07 C8 F8 FF FF
  can1  7F1   [6]  04 43 FD 63 FF 3E
  can1  381   [6]  37 07 C0 F8 FF FF
  can1  481   [6]  37 07 F2 FE FF FF
  can1  381   [6]  37 07 B8 F8 FF FF
  can1  080   [0] 
  can1  481   [6]  37 07 10 FF FF FF
  can1  181   [8]  B1 F8 FF FF D0 FF 37 07
  can1  381   [6]  37 07 B0 F8 FF FF
  can1  201   [8]  00 00 00 00 00 00 0F 00
  can1  381   [6]  37 07 A6 F8 FF FF
  can1  401   [6]  0F 00 00 00 00 00
  can1  481   [6]  37 07 F2 FE FF FF
  can1  381   [6]  37 07 9F F8 FF FF
  can1  381   [6]  37 03 96 F8 FF FF
  can1  481   [6]  37 03 F2 FE FF FF
  can1  481   [6]  37 07 10 FF FF FF
  can1  381   [6]  37 07 8E F8 FF FF
  can1  501   [6]  0F 00 DE FE FF FF
  can1  381   [6]  37 07 86 F8 FF FF
  can1  080   [0] 
  can1  181   [8]  7E F8 FF FF E1 FF 37 03
  can1  201   [8]  00 00 00 00 00 00 0F 00
  can1  381   [6]  37 03 7E F8 FF FF
  can1  481   [6]  37 03 10 FF FF FF
  can1  381   [6]  37 03 75 F8 FF FF
  can1  381   [6]  37 03 6D F8 FF FF
  can1  401   [6]  0F 00 00 00 00 00
  can1  481   [6]  37 03 F2 FE FF FF
  can1  381   [6]  37 03 65 F8 FF FF
  can1  481   [6]  37 03 10 FF FF FF
  can1  381   [6]  37 03 5C F8 FF FF
  can1  7F0   [0] 
  can1  481   [6]  37 03 F2 FE FF FF
  can1  381   [6]  37 03 53 F8 FF FF
  can1  7F0   [8]  40 00 F6 A9 EF 4A DB FF
  can1  481   [6]  37 07 F2 FE FF FF
  can1  381   [6]  37 07 4B F8 FF FF
  can1  481   [6]  37 07 10 FF FF FF
  can1  381   [6]  37 07 42 F8 FF FF
  can1  501   [6]  0F 00 99 FE FF FF
  can1  481   [6]  37 07 F2 FE FF FF
  can1  381   [6]  37 07 39 F8 FF FF
  can1  381   [6]  37 03 30 F8 FF FF
  can1  481   [6]  37 03 F2 FE FF FF
  can1  7F1   [6]  04 1E FD 39 FF 53
  can1  481   [6]  37 03 D4 FE FF FF
  can1  381   [6]  37 03 27 F8 FF FF
  can1  481   [6]  37 03 10 FF FF FF
  can1  381   [6]  37 03 1E F8 FF FF
  can1  381   [6]  37 03 14 F8 FF FF
  can1  481   [6]  37 03 D4 FE FF FF
  can1  381   [6]  37 03 0A F8 FF FF
  can1  080   [0] 
  can1  181   [8]  02 F8 FF FF 65 FF 37 03
  can1  481   [6]  37 03 B6 FE FF FF
  can1  201   [8]  00 00 00 00 00 00 0F 00
  can1  381   [6]  37 03 FF F7 FF FF
  can1  381   [6]  37 03 F3 F7 FF FF
  can1  381   [6]  37 03 E8 F7 FF FF
  can1  401   [6]  0F 00 00 00 00 00
  can1  481   [6]  37 07 98 FE FF FF
  can1  381   [6]  37 07 DC F7 FF FF
  can1  501   [6]  0F 00 99 FE FF FF
  can1  381   [6]  37 03 D0 F7 FF FF
  can1  080   [0] 
  can1  481   [6]  37 03 98 FE FF FF
  can1  181   [8]  C7 F7 FF FF 8C FF 37 03
  can1  201   [8]  00 00 00 00 00 00 0F 00
  can1  381   [6]  37 03 C4 F7 FF FF
  can1  401   [6]  0F 00 00 00 00 00
  can1  481   [6]  37 07 7A FE FF FF
  can1  381   [6]  37 07 B7 F7 FF FF
  can1  381   [6]  37 03 AB F7 FF FF
  can1  481   [6]  37 03 7A FE FF FF
  can1  481   [6]  37 03 98 FE FF FF
  can1  381   [6]  37 03 9E F7 FF FF
  can1  481   [6]  37 07 98 FE FF FF
  can1  381   [6]  37 07 92 F7 FF FF
  can1  481   [6]  37 07 7A FE FF FF
  can1  381   [6]  37 07 84 F7 FF FF
  can1  481   [6]  37 07 5C FE FF FF
  can1  381   [6]  37 07 77 F7 FF FF
  can1  501   [6]  0F 00 36 FE FF FF
  can1  481   [6]  37 07 7A FE FF FF
  can1  381   [6]  37 07 6A F7 FF FF
  can1  7F0   [0] 
  can1  381   [6]  37 03 5D F7 FF FF
  can1  481   [6]  37 03 7A FE FF FF
  can1  381   [6]  37 03 50 F7 FF FF
  can1  7F0   [8]  40 00 F5 AC ED 50 DA A6
  can1  481   [6]  37 03 98 FE FF FF
  can1  381   [6]  37 03 44 F7 FF FF
  can1  7F1   [6]  03 F5 FD B7 FF 19
  can1  481   [6]  37 03 7A FE FF FF
  can1  080   [0] 
  can1  381   [6]  37 03 37 F7 FF FF
  can1  181   [8]  2C F7 FF FF B0 FF 37 03
  can1  381   [6]  37 03 29 F7 FF FF
  can1  201   [8]  00 00 00 00 00 00 0F 00
  can1  481   [6]  37 03 5C FE FF FF
  can1  381   [6]  37 03 1C F7 FF FF
  can1  381   [6]  37 03 0E F7 FF FF
  can1  401   [6]  0F 00 00 00 00 00
  can1  381   [6]  37 03 01 F7 FF FF
  can1  481   [6]  37 03 7A FE FF FF
  can1  501   [6]  0F 00 36 FE FF FF
  can1  381   [6]  37 03 F4 F6 FF FF
  can1  080   [0] 
  can1  181   [8]  E6 F6 FF FF 73 FF 37 03
  can1  201   [8]  00 00 00 00 00 00 0F 00
  can1  381   [6]  37 03 E5 F6 FF FF
  can1  401   [6]  0F 00 00 00 00 00
  can1  381   [6]  37 03 D8 F6 FF FF
  can1  481   [6]  37 03 5C FE FF FF
  can1  481   [6]  37 03 7A FE FF FF
  can1  381   [6]  37 03 CA F6 FF FF
  can1  481   [6]  37 03 5C FE FF FF
  can1  381   [6]  37 03 BB F6 FF FF
  can1  481   [6]  37 03 3E FE FF FF
  can1  381   [6]  37 07 AC F6 FF FF
  can1  481   [6]  37 07 3E FE FF FF
  can1  381   [6]  37 07 9C F6 FF FF
  can1  481   [6]  37 07 E4 FD FF FF
  can1  381   [6]  37 07 8B F6 FF FF
  can1  501   [6]  0F 00 E6 FD FF FF
  can1  481   [6]  37 07 02 FE FF FF
  can1  381   [6]  37 07 7A F6 FF FF
  can1  7F0   [0] 
  can1  381   [6]  37 03 6A F6 FF FF
  can1  481   [6]  37 03 20 FE FF FF
  can1  7F0   [8]  40 00 F4 AD EB FF D9 7A
  can1  381   [6]  37 03 5B F6 FF FF
  can1  481   [6]  37 03 3E FE FF FF
  can1  381   [6]  37 03 4B F6 FF FF
  can1  7F1   [6]  03 FB FE 1B FE B7
  can1  481   [6]  37 03 C6 FD FF FF
  can1  381   [6]  37 03 39 F6 FF FF
  can1  481   [6]  37 03 02 FE FF FF
  can1  381   [6]  37 03 27 F6 FF FF
  can1  481   [6]  37 03 20 FE FF FF
  can1  381   [6]  37 03 18 F6 FF FF
  can1  080   [0] 
  can1  181   [8]  0A F6 FF FF 9D FF 37 03
  can1  381   [6]  37 03 08 F6 FF FF
  can1  201   [8]  00 00 00 00 00 00 0F 00
  can1  481   [6]  37 03 02 FE FF FF
  can1  381   [6]  37 03 F5 F5 FF FF
  can1  401   [6]  0F 00 00 00 00 00
  can1  381   [6]  37 03 E2 F5 FF FF
  can1  481   [6]  37 03 C6 FD FF FF
  can1  481   [6]  37 07 C6 FD FF FF
  can1  381   [6]  37 07 D0 F5 FF FF
  can1  481   [6]  37 03 20 FE FF FF
  can1  381   [6]  37 03 C0 F5 FF FF
  can1  481   [6]  37 07 02 FE FF FF
  can1  381   [6]  37 07 AF F5 FF FF
  can1  501   [6]  0F 00 E6 FD FF FF
  can1  481   [6]  37 07 E4 FD FF FF
  can1  080   [0] 
  can1  381   [6]  37 07 9C F5 FF FF
  can1  181   [8]  8B F5 FF FF A9 FF 37 03
  can1  201   [8]  00 00 00 00 00 00 0F 00
  can1  481   [6]  37 03 C6 FD FF FF
  can1  381   [6]  37 03 89 F5 FF FF
  can1  401   [6]  0F 00 00 00 00 00
  can1  481   [6]  37 07 C6 FD FF FF
  can1  381   [6]  37 07 77 F5 FF FF
  can1  481   [6]  37 03 E4 FD FF FF
  can1  381   [6]  37 03 64 F5 FF FF
  can1  481   [6]  37 03 A8 FD FF FF
  can1  381   [6]  37 03 50 F5 FF FF
  can1  481   [6]  37 07 A8 FD FF FF
  can1  381   [6]  37 07 3C F5 FF FF
  can1  481   [6]  37 07 C6 FD FF FF
  can1  381   [6]  37 07 2A F5 FF FF
  can1  481   [6]  37 07 E4 FD FF FF
  can1  381   [6]  37 07 18 F5 FF FF
  can1  481   [6]  37 07 C6 FD FF FF
  can1  381   [6]  37 07 04 F5 FF FF
  can1  381   [6]  37 07 F1 F4 FF FF
  can1  7F0   [0] 
  can1  501   [6]  0F 00 DE FD FF FF
  can1  481   [6]  37 07 A8 FD FF FF
  can1  381   [6]  37 07 DD F4 FF FF
  can1  7F0   [8]  40 00 F3 3C EA 5A D7 D5
  can1  381   [6]  37 03 CB F4 FF FF
  can1  481   [6]  37 03 C6 FD FF FF
  can1  481   [6]  37 03 E4 FD FF FF
  can1  381   [6]  37 03 B8 F4 FF FF
  can1  481   [6]  37 07 E4 FD FF FF
  can1  080   [0] 
  can1  381   [6]  37 07 A7 F4 FF FF
  can1  181   [8]  9B F4 FF FF EB FF 37 07
  can1  381   [6]  37 07 95 F4 FF FF
  can1  7F1   [6]  03 B3 FE 8A FE 56
  can1  201   [8]  00 00 00 00 00 00 0F 00
  can1  381   [6]  37 07 83 F4 FF FF
  can1  401   [6]  0F 00 00 00 00 00
  can1  481   [6]  37 07 C6 FD FF FF
  can1  381   [6]  37 07 6F F4 FF FF
  can1  381   [6]  37 03 5B F4 FF FF
  can1  481   [6]  37 03 A8 FD FF FF
  can1  481   [6]  37 03 C6 FD FF FF
  can1  381   [6]  37 03 49 F4 FF FF
  can1  481   [6]  37 07 E4 FD FF FF
  can1  381   [6]  37 07 38 F4 FF FF
  can1  481   [6]  37 07 02 FE FF FF
  can1  381   [6]  37 07 26 F4 FF FF
  can1  501   [6]  0F 00 DE FD FF FF
  can1  481   [6]  37 07 C6 FD FF FF
  can1  080   [0] 
  can1  381   [6]  37 07 12 F4 FF FF
  can1  181   [8]  02 F4 FF FF F7 FF 37 03
  can1  201   [8]  00 00 00 00 00 00 0F 00
  can1  381   [6]  37 03 00 F4 FF FF
  can1  481   [6]  37 03 C6 FD FF FF
  can1  481   [6]  37 07 02 FE FF FF
  can1  381   [6]  37 07 EF F3 FF FF
  can1  381   [6]  37 03 DE F3 FF FF
  can1  481   [6]  37 03 02 FE FF FF
  can1  481   [6]  37 07 C6 FD FF FF
  can1  381   [6]  37 07 CB F3 FF FF
  can1  381   [6]  37 07 B8 F3 FF FF
  can1  481   [6]  37 07 02 FE FF FF
  can1  381   [6]  37 07 A6 F3 FF FF
  can1  7F0   [0] 
  can1  481   [6]  37 07 E4 FD FF FF
  can1  381   [6]  37 07 95 F3 FF FF
  can1  7F0   [8]  40 00 F1 86 E8 38 D5 E6
  can1  381   [6]  37 07 83 F3 FF FF
  can1  7F1   [6]  02 B1 FE 31 FD DB
  can1  481   [6]  37 07 C6 FD FF FF
  can1  381   [6]  37 07 6F F3 FF FF
  can1  481   [6]  37 07 E4 FD FF FF
  can1  381   [6]  37 07 5E F3 FF FF
  can1  401   [6]  0F 00 00 00 00 00
  can1  381   [6]  37 07 4C F3 FF FF
  can1  501   [6]  0F 00 B2 FD FF FF
  can1  481   [6]  37 03 E4 FD FF FF
  can1  080   [0] 
  can1  381   [6]  37 03 3A F3 FF FF
  can1  181   [8]  2B F3 FF FF F9 FF 37 03
  can1  201   [8]  00 00 00 00 00 00 0F 00
  can1  381   [6]  37 03 27 F3 FF FF
  can1  401   [6]  0F 00 00 00 00 00
  can1  481   [6]  37 03 C6 FD FF FF
  can1  381   [6]  37 03 14 F3 FF FF
  can1  381   [6]  37 03 02 F3 FF FF
  can1  481   [6]  37 03 02 FE FF FF
  can1  381   [6]  37 03 F1 F2 FF FF
  can1  481   [6]  37 03 C6 FD FF FF
  can1  381   [6]  37 03 DE F2 FF FF
  can1  481   [6]  37 07 A8 FD FF FF
  can1  381   [6]  37 07 CB F2 FF FF
  can1  501   [6]  0F 00 B2 FD FF FF
  can1  481   [6]  37 07 E4 FD FF FF
  can1  080   [0] 
  can1  381   [6]  37 07 B8 F2 FF FF
  can1  181   [8]  AB F2 FF FF 7D FF 37 07
  can1  381   [6]  37 03 A5 F2 FF FF
  can1  481   [6]  37 03 C6 FD FF FF
  can1  481   [6]  37 07 A8 FD FF FF
  can1  381   [6]  37 07 91 F2 FF FF
  can1  381   [6]  37 07 7D F2 FF FF
  can1  7F0   [0] 
  can1  201   [8]  00 00 00 00 00 00 0F 00
  can1  381   [6]  37 07 6A F2 FF FF
  can1  7F0   [8]  40 00 F0 BA E7 50 D5 09
  can1  381   [6]  37 03 56 F2 FF FF
  can1  481   [6]  37 03 C6 FD FF FF
  can1  481   [6]  37 07 A8 FD FF FF
  can1  381   [6]  37 07 42 F2 FF FF
  can1  7F1   [6]  02 C8 FE 70 FE 16
  can1  481   [6]  37 07 8A FD FF FF
  can1  381   [6]  37 07 2D F2 FF FF
  can1  481   [6]  37 07 C6 FD FF FF
  can1  381   [6]  37 07 1A F2 FF FF
  can1  481   [6]  37 07 A8 FD FF FF
  can1  381   [6]  37 07 05 F2 FF FF
  can1  401   [6]  0F 00 00 00 00 00
  can1  481   [6]  37 07 8A FD FF FF
  can1  381   [6]  37 07 F1 F1 FF FF
  can1  481   [6]  37 03 8A FD FF FF
  can1  381   [6]  37 03 DA F1 FF FF
  can1  501   [6]  0F 00 6D FD FF FF
  can1  481   [6]  37 07 A8 FD FF FF
  can1  080   [0] 
  can1  381   [6]  37 07 C8 F1 FF FF
  can1  181   [8]  B6 F1 FF FF F4 FF 37 03
  can1  201   [8]  00 00 00 00 00 00 0F 00
  can1  381   [6]  37 03 B2 F1 FF FF
  can1  401   [6]  0F 00 00 00 00 00
  can1  381   [6]  37 03 A0 F1 FF FF
  can1  481   [6]  37 03 A8 FD FF FF
  can1  381   [6]  37 03 8B F1 FF FF
  can1  481   [6]  37 03 8A FD FF FF
  can1  381   [6]  37 03 77 F1 FF FF
  can1  481   [6]  37 03 A8 FD FF FF
  can1  381   [6]  37 03 63 F1 FF FF
  can1  501   [6]  0F 00 6D FD FF FF
  can1  381   [6]  37 03 4F F1 FF FF
  can1  080   [0] 
  can1  181   [8]  3C F1 FF FF B0 FF 37 03
  can1  481   [6]  37 03 8A FD FF FF
  can1  381   [6]  37 03 38 F1 FF FF
  can1  381   [6]  37 03 25 F1 FF FF
  can1  481   [6]  37 03 A8 FD FF FF
  can1  7F0   [0] 
  can1  381   [6]  37 07 11 F1 FF FF
  can1  481   [6]  37 07 8A FD FF FF
  can1  201   [8]  00 00 00 00 00 00 0F 00
  can1  481   [6]  37 07 8A FD FF FF
  can1  381   [6]  37 07 FC F0 FF FF
  can1  481   [6]  37 07 A8 FD FF FF
  can1  381   [6]  37 07 E7 F0 FF FF
  can1  481   [6]  37 07 6C FD FF FF
  can1  381   [6]  37 03 D0 F0 FF FF
  can1  481   [6]  37 03 8A FD FF FF
  can1  381   [6]  37 07 BA F0 FF FF
  can1  481   [6]  37 07 4E FD FF FF
  can1  381   [6]  37 07 A3 F0 FF FF
  can1  481   [6]  37 07 6C FD FF FF
  can1  7F0   [8]  40 00 EE E9 E5 F3 D3 59
  can1  381   [6]  37 07 8D F0 FF FF
  can1  401   [6]  0F 00 00 00 00 00
  can1  481   [6]  37 07 4E FD FF FF
  can1  381   [6]  37 07 76 F0 FF FF
  can1  481   [6]  37 03 6C FD FF FF
  can1  381   [6]  37 03 60 F0 FF FF
  can1  481   [6]  37 07 8A FD FF FF
  can1  381   [6]  37 07 4B F0 FF FF
  can1  501   [6]  0F 00 35 FD FF FF
  can1  481   [6]  37 07 6C FD FF FF
  can1  080   [0] 
  can1  381   [6]  37 07 34 F0 FF FF
  can1  181   [8]  22 F0 FF FF C8 FF 37 03
  can1  201   [8]  00 00 00 00 00 00 0F 00
  can1  381   [6]  37 03 1B F0 FF FF
  can1  401   [6]  0F 00 00 00 00 00
  can1  381   [6]  37 03 07 F0 FF FF
  can1  481   [6]  37 03 4E FD FF FF
  can1  381   [6]  37 03 F0 EF FF FF
  can1  381   [6]  37 03 D9 EF FF FF
  can1  501   [6]  0F 00 E8 FC FF FF
  can1  481   [6]  37 03 6C FD FF FF
  can1  381   [6]  37 03 C3 EF FF FF
  can1  080   [0] 
  can1  381   [6]  37 03 AC EF FF FF
  can1  201   [8]  00 00 00 00 00 00 0F 00
  can1  481   [6]  37 03 4E FD FF FF
  can1  181   [8]  AA EF FF FF B3 FF 37 03
  can1  381   [6]  37 03 94 EF FF FF
  can1  381   [6]  37 03 7E EF FF FF
  can1  7F0   [0] 
  can1  7F1   [6]  02 1B FE 9E FD FF
  can1  401   [6]  0F 00 00 00 00 00
  can1  381   [6]  37 03 67 EF FF FF
  can1  481   [6]  37 03 6C FD FF FF
  can1  481   [6]  37 03 12 FD FF FF
  can1  381   [6]  37 03 4E EF FF FF
  can1  381   [6]  37 03 36 EF FF FF
  can1  7F0   [8]  40 00 ED 03 E4 7B D1 B8
  can1  481   [6]  37 03 4E FD FF FF
  can1  381   [6]  37 03 1E EF FF FF
  can1  481   [6]  37 03 12 FD FF FF
  can1  381   [6]  37 03 05 EF FF FF
  can1  7F1   [6]  01 B7 FF 73 FE 23
  can1  381   [6]  37 03 EC EE FF FF
  can1  481   [6]  37 03 30 FD FF FF
  can1  381   [6]  37 03 D3 EE FF FF
  can1  481   [6]  37 07 B8 FC FF FF
  can1  381   [6]  37 07 B8 EE FF FF
  can1  501   [6]  0F 00 E8 FC FF FF
  can1  481   [6]  37 07 D6 FC FF FF
  can1  080   [0] 
  can1  381   [6]  37 07 9D EE FF FF
  can1  181   [8]  8B EE FF FF C8 FF 37 07
  can1  201   [8]  00 00 00 00 00 00 0F 00
  can1  381   [6]  37 03 84 EE FF FF
  can1  401   [6]  0F 00 00 00 00 00
  can1  481   [6]  37 03 12 FD FF FF
  can1  481   [6]  37 07 B8 FC FF FF
  can1  381   [6]  37 07 67 EE FF FF
  can1  481   [6]  37 03 B8 FC FF FF
  can1  381   [6]  37 03 4C EE FF FF
  can1  481   [6]  37 03 F4 FC FF FF
  can1  381   [6]  37 03 31 EE FF FF
  can1  481   [6]  37 07 7C FC FF FF
  can1  381   [6]  37 07 13 EE FF FF
  can1  481   [6]  37 07 9A FC FF FF
  can1  381   [6]  37 07 F8 ED FF FF
  can1  481   [6]  37 07 12 FD FF FF
  can1  381   [6]  37 07 DD ED FF FF
  can1  481   [6]  37 07 B8 FC FF FF
  can1  381   [6]  37 07 C1 ED FF FF
  can1  501   [6]  0F 00 8B FC FF FF
  can1  381   [6]  37 07 A6 ED FF FF
  can1  7F0   [0] 
  can1  381   [6]  37 03 8A ED FF FF
  can1  481   [6]  37 03 F4 FC FF FF
  can1  7F0   [8]  40 00 EB B1 E3 67 D0 35
  can1  481   [6]  37 03 9A FC FF FF
  can1  381   [6]  37 03 6D ED FF FF
  can1  481   [6]  37 03 B8 FC FF FF
  can1  381   [6]  37 03 52 ED FF FF
  can1  481   [6]  37 03 D6 FC FF FF
  can1  381   [6]  37 03 37 ED FF FF
  can1  7F1   [6]  01 2A 00 85 FE 49
  can1  481   [6]  37 03 B8 FC FF FF
  can1  381   [6]  37 03 1A ED FF FF
  can1  381   [6]  37 03 FE EC FF FF
  can1  080   [0] 
  can1  181   [8]  EB EC FF FF A2 FF 37 03
  can1  381   [6]  37 03 E3 EC FF FF
  can1  201   [8]  00 00 00 00 00 00 0F 00
  can1  481   [6]  37 03 D6 FC FF FF
  can1  381   [6]  37 03 C8 EC FF FF
  can1  401   [6]  0F 00 00 00 00 00
  can1  381   [6]  37 03 AC EC FF FF
  can1  501   [6]  0F 00 8B FC FF FF
  can1  381   [6]  37 03 8D EC FF FF
  can1  080   [0] 
  can1  481   [6]  37 03 7C FC FF FF
  can1  181   [8]  76 EC FF FF CB FF 37 03
  can1  201   [8]  00 00 00 00 00 00 0F 00
  can1  381   [6]  37 03 70 EC FF FF
  can1  401   [6]  0F 00 00 00 00 00
  can1  481   [6]  37 07 B8 FC FF FF
  can1  381   [6]  37 07 54 EC FF FF
  can1  481   [6]  37 03 5E FC FF FF
  can1  381   [6]  37 03 35 EC FF FF
  can1  481   [6]  37 03 9A FC FF FF
  can1  381   [6]  37 03 1A EC FF FF
  can1  481   [6]  37 07 B8 FC FF FF
  can1  381   [6]  37 07 FC EB FF FF
  can1  481   [6]  37 07 5E FC FF FF
  can1  381   [6]  37 07 DD EB FF FF
  can1  481   [6]  37 07 9A FC FF FF
  can1  381   [6]  37 07 C0 EB FF FF
  can1  501   [6]  0F 00 61 FC FF FF
  can1  481   [6]  37 07 7C FC FF FF
  can1  381   [6]  37 07 A1 EB FF FF
  can1  381   [6]  37 03 83 EB FF FF
  can1  481   [6]  37 03 5E FC FF FF
  can1  7F0   [0] 
  can1  381   [6]  37 03 65 EB FF FF
  can1  080   [0] 
  can1  481   [6]  37 03 9A FC FF FF
  can1  181   [8]  4C EB FF FF DA FF 37 03
  can1  381   [6]  37 03 45 EB FF FF
  can1  481   [6]  37 03 40 FC FF FF
  can1  381   [6]  37 03 29 EB FF FF
  can1  481   [6]  37 03 7C FC FF FF
  can1  381   [6]  37 03 0A EB FF FF
  can1  481   [6]  37 03 9A FC FF FF
  can1  381   [6]  37 07 EB EA FF FF
  can1  481   [6]  37 07 40 FC FF FF
  can1  7F0   [8]  40 00 EA 1C E2 70 CE 7E
  can1  381   [6]  37 07 CC EA FF FF
  can1  481   [6]  37 07 7C FC FF FF
  can1  381   [6]  37 07 AC EA FF FF
  can1  481   [6]  37 07 40 FC FF FF
  can1  201   [8]  00 00 00 00 00 00 0F 00
  can1  381   [6]  37 07 8D EA FF FF
  can1  481   [6]  37 07 5E FC FF FF
  can1  381   [6]  37 03 6E EA FF FF
  can1  401   [6]  0F 00 00 00 00 00
  can1  481   [6]  37 03 5E FC FF FF
  can1  381   [6]  37 07 4E EA FF FF
  can1  481   [6]  37 07 40 FC FF FF
  can1  381   [6]  37 03 2E EA FF FF
  can1  481   [6]  37 03 40 FC FF FF
  can1  381   [6]  37 07 0E EA FF FF
  can1  481   [6]  37 07 40 FC FF FF
  can1  501   [6]  0F 00 61 FC FF FF
  can1  381   [6]  37 07 EE E9 FF FF
  can1  080   [0] 
  can1  7F1   [6]  00 96 01 4D FE 11
  can1  181   [8]  CE E9 FF FF 20 00 37 03
  can1  201   [8]  00 00 00 00 00 00 0F 00
  can1  381   [6]  37 03 CE E9 FF FF
  can1  401   [6]  0F 00 00 00 00 00
  can1  481   [6]  37 03 5E FC FF FF
  can1  481   [6]  37 07 22 FC FF FF
  can1  381   [6]  37 07 AE E9 FF FF
  can1  481   [6]  37 03 5E FC FF FF
  can1  381   [6]  37 03 8F E9 FF FF
  can1  481   [6]  37 03 40 FC FF FF
  can1  381   [6]  37 03 6F E9 FF FF
  can1  481   [6]  37 07 40 FC FF FF
  can1  381   [6]  37 07 4F E9 FF FF
  can1  481   [6]  37 07 5E FC FF FF
  can1  381   [6]  37 07 31 E9 FF FF
  can1  381   [6]  37 07 12 E9 FF FF
  can1  381   [6]  37 07 F2 E8 FF FF
  can1  501   [6]  0F 00 13 FC FF FF
  can1  481   [6]  37 07 40 FC FF FF
  can1  381   [6]  37 07 D2 E8 FF FF
  can1  7F0   [0] 
  can1  381   [6]  37 03 B2 E8 FF FF
  can1  481   [6]  37 03 40 FC FF FF
  can1  7F0   [8]  40 00 E8 96 E2 25 CD 11
  can1  381   [6]  37 03 94 E8 FF FF
  can1  481   [6]  37 03 5E FC FF FF
  can1  381   [6]  37 03 76 E8 FF FF
  can1  481   [6]  37 03 7C FC FF FF
  can1  7F1   [6]  00 81 02 69 FE 1B
  can1  381   [6]  37 03 57 E8 FF FF
  can1  481   [6]  37 03 5E FC FF FF
  can1  381   [6]  37 03 38 E8 FF FF
  can1  481   [6]  37 03 40 FC FF FF
  can1  381   [6]  37 03 19 E8 FF FF
  can1  080   [0] 
  can1  181   [8]  FD E7 FF FF 71 FF 37 03
  can1  481   [6]  37 03 5E FC FF FF
  can1  381   [6]  37 03 FA E7 FF FF
  can1  201   [8]  00 00 00 00 00 00 0F 00
  can1  381   [6]  37 03 DA E7 FF FF
  can1  401   [6]  0F 00 00 00 00 00
  can1  481   [6]  37 03 40 FC FF FF
  can1  381   [6]  37 03 BA E7 FF FF
  can1  481   [6]  37 03 5E FC FF FF
  can1  381   [6]  37 03 9A E7 FF FF
  can1  481   [6]  37 03 22 FC FF FF
  can1  381   [6]  37 03 79 E7 FF FF
  can1  481   [6]  37 07 04 FC FF FF
  can1  381   [6]  37 07 58 E7 FF FF
  can1  501   [6]  0F 00 13 FC FF FF
  can1  481   [6]  37 07 22 FC FF FF
  can1  080   [0] 
  can1  381   [6]  37 07 37 E7 FF FF
  can1  181   [8]  1A E7 FF FF 9A FF 37 03
  can1  201   [8]  00 00 00 00 00 00 0F 00
  can1  381   [6]  37 03 17 E7 FF FF
  can1  401   [6]  0F 00 00 00 00 00
  can1  481   [6]  37 07 40 FC FF FF
  can1  481   [6]  37 03 22 FC FF FF
  can1  381   [6]  37 07 F4 E6 FF FF
  can1  481   [6]  37 03 C8 FB FF FF
  can1  381   [6]  37 03 D0 E6 FF FF
  can1  481   [6]  37 03 22 FC FF FF
  can1  381   [6]  37 03 B1 E6 FF FF
  can1  481   [6]  37 07 E6 FB FF FF
  can1  381   [6]  37 07 8C E6 FF FF
  can1  481   [6]  37 07 04 FC FF FF
  can1  381   [6]  37 07 6C E6 FF FF
  can1  481   [6]  37 07 E6 FB FF FF
  can1  381   [6]  37 07 47 E6 FF FF
  can1  481   [6]  37 07 C8 FB FF FF
  can1  381   [6]  37 07 26 E6 FF FF
  can1  481   [6]  37 07 40 FC FF FF
  can1  381   [6]  37 07 04 E6 FF FF
  can1  481   [6]  37 07 E6 FB FF FF
  can1  381   [6]  37 07 E0 E5 FF FF
  can1  7F0   [0] 
  can1  481   [6]  37 07 04 FC FF FF
  can1  381   [6]  37 07 BC E5 FF FF
  can1  501   [6]  0F 00 C2 FB FF FF
  can1  481   [6]  37 07 E6 FB FF FF
  can1  381   [6]  37 07 9C E5 FF FF
  can1  7F0   [8]  40 00 E5 86 DF BE C9 E7
  can1  080   [0] 
  can1  481   [6]  37 03 04 FC FF FF
  can1  381   [6]  37 03 7B E5 FF FF
  can1  181   [8]  62 E5 FF FF E8 FF 37 03
  can1  201   [8]  00 00 00 00 00 00 0F 00
  can1  381   [6]  37 03 58 E5 FF FF
  can1  401   [6]  0F 00 00 00 00 00
  can1  481   [6]  37 03 E6 FB FF FF
  can1  381   [6]  37 03 32 E5 FF FF
  can1  381   [6]  37 03 13 E5 FF FF
  can1  481   [6]  37 03 04 FC FF FF
  can1  381   [6]  37 03 F2 E4 FF FF
  can1  481   [6]  37 03 22 FC FF FF
  can1  381   [6]  37 03 CF E4 FF FF
  can1  481   [6]  37 03 04 FC FF FF
  can1  381   [6]  37 03 AB E4 FF FF
  can1  481   [6]  37 03 8C FB FF FF
  can1  381   [6]  37 03 89 E4 FF FF
  can1  481   [6]  37 03 22 FC FF FF
  can1  381   [6]  37 03 65 E4 FF FF
  can1  481   [6]  37 03 C8 FB FF FF
  can1  501   [6]  0F 00 C2 FB FF FF
  can1  381   [6]  37 07 43 E4 FF FF
  can1  080   [0] 
  can1  481   [6]  37 07 E6 FB FF FF
  can1  381   [6]  37 03 1E E4 FF FF
  can1  481   [6]  37 03 E6 FB FF FF
  can1  181   [8]  1A E4 FF FF 82 FF 37 03
  can1  381   [6]  37 07 FB E3 FF FF
  can1  481   [6]  37 07 C8 FB FF FF
  can1  381   [6]  37 07 D7 E3 FF FF
  can1  481   [6]  37 07 E6 FB FF FF
  can1  381   [6]  37 07 B2 E3 FF FF
  can1  481   [6]  37 07 AA FB FF FF
  can1  381   [6]  37 07 8E E3 FF FF
  can1  481   [6]  37 07 C8 FB FF FF
  can1  7F0   [0] 
  can1  201   [8]  00 00 00 00 00 00 0F 00
  can1  481   [6]  37 07 8C FB FF FF
  can1  381   [6]  37 07 69 E3 FF FF
  can1  381   [6]  37 07 45 E3 FF FF
  can1  481   [6]  37 07 E6 FB FF FF
  can1  381   [6]  37 03 20 E3 FF FF
  can1  481   [6]  37 03 8C FB FF FF
  can1  381   [6]  37 07 FB E2 FF FF
  can1  481   [6]  37 07 C8 FB FF FF
  can1  7F0   [8]  40 00 E3 79 DE 7F C7 DD
  can1  381   [6]  37 07 D5 E2 FF FF
  can1  401   [6]  0F 00 00 00 00 00
  can1  481   [6]  37 07 8C FB FF FF
  can1  381   [6]  37 07 B1 E2 FF FF
  can1  481   [6]  37 07 AA FB FF FF
  can1  381   [6]  37 03 8B E2 FF FF
  can1  481   [6]  37 03 AA FB FF FF
  can1  381   [6]  37 07 67 E2 FF FF
  can1  481   [6]  37 07 C8 FB FF FF
  can1  381   [6]  37 07 41 E2 FF FF
  can1  481   [6]  37 07 8C FB FF FF
  can1  501   [6]  0F 00 83 FB FF FF
  can1  381   [6]  37 07 1C E2 FF FF
  can1  481   [6]  37 07 AA FB FF FF
  can1  080   [0] 
  can1  381   [6]  37 03 F7 E1 FF FF
  can1  481   [6]  37 03 AA FB FF FF
  can1  181   [8]  E7 E1 FF FF 05 00 37 03
  can1  201   [8]  00 00 00 00 00 00 0F 00
  can1  381   [6]  37 03 D2 E1 FF FF
  can1  381   [6]  37 03 AD E1 FF FF
  can1  401   [6]  0F 00 00 00 00 00
  can1  381   [6]  37 03 88 E1 FF FF
  can1  481   [6]  37 03 8C FB FF FF
  can1  381   [6]  37 03 63 E1 FF FF
  can1  481   [6]  37 03 C8 FB FF FF
  can1  381   [6]  37 03 3F E1 FF FF
  can1  501   [6]  0F 00 83 FB FF FF
  can1  481   [6]  37 03 8C FB FF FF
  can1  080   [0] 
  can1  381   [6]  37 03 19 E1 FF FF
  can1  181   [8]  06 E1 FF FF D2 FF 37 03
  can1  201   [8]  00 00 00 00 00 00 0F 00
  can1  381   [6]  37 03 F3 E0 FF FF
  can1  481   [6]  37 07 8C FB FF FF
  can1  381   [6]  37 07 CD E0 FF FF
  can1  401   [6]  0F 00 00 00 00 00
  can1  481   [6]  37 03 AA FB FF FF
  can1  381   [6]  37 03 A9 E0 FF FF
  can1  381   [6]  37 03 83 E0 FF FF
  can1  501   [6]  0F 00 3F FB FF FF
